!Keysight Technologies,P9371A,MY57211172,A.13.10.05
!Date: Monday, March 30, 2026 15:52:35
!Correction: S11(Full 2 Port(1,2)) 
!S21(Full 2 Port(1,2)) 
!S12(Full 2 Port(1,2)) 
!S22(Full 2 Port(1,2)) 
!S2P File: Measurements: S11, S21, S12, S22:
# Hz S  dB   R 50
10000000 0.002478458 -1.5004135 -81.47155 67.140656 -79.89724 69.539513 0.0028700994 -1.2653689
16490000 0.11161213 -1.5746239 -83.594543 -168.37112 -85.998825 85.09951 0.091105536 -1.3835683
22980000 0.0015098253 -3.9346092 -84.026321 31.8925 -83.325661 140.70726 0.0029345821 -3.6679773
29470000 -0.0052236002 -5.0776334 -102.25183 -0.16500327 -81.728447 166.33423 -0.0086254263 -4.7941213
35960000 -0.010157545 -6.1496758 -80.89608 -173.58838 -75.555977 -147.55849 -0.0073525514 -5.8597426
42450000 -0.0075688842 -7.2231598 -81.843842 -72.264694 -93.777771 174.83752 -0.011059495 -6.9026642
48940000 -0.014521809 -8.2680035 -76.819046 -80.873528 -82.271263 28.697662 -0.01094813 -7.9767346
55430000 -0.016798779 -9.3031178 -76.867065 172.07397 -76.430595 -48.409344 -0.017031088 -9.0256462
61920000 -0.017837966 -10.374946 -79.693054 -30.932135 -76.990433 42.224693 -0.017747009 -10.067634
68410000 -0.019661769 -11.410488 -81.354828 98.86013 -78.872612 -5.8287745 -0.018512294 -11.16109
74900000 -0.019199181 -12.459499 -87.788612 -47.829121 -78.626717 -27.000505 -0.022091266 -12.173448
81390000 -0.021845585 -13.49834 -75.771477 30.209433 -79.35463 89.007912 -0.022448026 -13.270695
87880000 -0.022494791 -14.51637 -88.056717 74.092476 -82.277405 -79.902023 -0.024640171 -14.286025
94370000 -0.024035132 -15.563964 -83.918121 44.178982 -85.666771 94.493561 -0.028959896 -15.32516
100860000 -0.026041972 -16.563429 -82.293961 1.9582016 -76.432358 56.243195 -0.027787944 -16.380381
107350000 -0.03312882 -17.624147 -73.790642 47.449646 -79.834595 65.258614 -0.03093441 -17.419878
113840000 -0.028346563 -18.6728 -84.04834 52.921543 -85.543991 82.239204 -0.033501569 -18.449944
120330000 -0.030650575 -19.717113 -87.839966 -3.2989035 -81.123909 95.673576 -0.037808802 -19.468584
126820000 -0.032999724 -20.783775 -77.082237 126.11425 -81.413628 97.331139 -0.038790017 -20.526922
133310000 -0.034978583 -21.871752 -92.55809 -165.28664 -75.094299 99.222054 -0.036592029 -21.586779
139800000 -0.036220033 -22.932991 -80.315651 -30.281729 -83.795486 -141.23653 -0.03976351 -22.624199
146290000 -0.038017493 -24.01816 -74.122871 74.231743 -81.684715 2.0810254 -0.041140657 -23.698309
152780000 -0.037057757 -25.082586 -84.619003 44.065804 -74.926521 10.162887 -0.04512088 -24.749582
159270000 -0.040739235 -26.167416 -71.510933 21.352167 -82.51487 51.942692 -0.046276901 -25.805296
165760000 -0.042347044 -27.204584 -76.075142 45.926315 -75.131531 32.810474 -0.051334698 -26.862194
172250000 -0.041414507 -28.242168 -71.170036 17.909494 -69.535538 -9.5216274 -0.052221969 -27.901318
178740000 -0.039760053 -29.262562 -68.295341 -72.778214 -73.056274 -83.019592 -0.05258175 -28.930683
185230000 -0.040623773 -30.275175 -72.389435 -117.97031 -75.976662 -117.59711 -0.054857634 -29.981939
191720000 -0.038654894 -31.299763 -76.576927 -159.56303 -76.230476 -143.41495 -0.048354283 -30.991693
198210000 -0.042256173 -32.3311 -69.551872 -101.91274 -81.151398 128.97404 -0.058925346 -32.020191
204700000 -0.046935651 -33.318478 -89.17588 153.0148 -73.993759 -159.76791 -0.056658089 -33.076317
211190000 -0.044134259 -34.342091 -82.271393 -177.87074 -86.250862 -110.45055 -0.065708898 -34.108097
217680000 -0.044645216 -35.351624 -70.77018 167.89536 -76.27774 -148.28067 -0.090630583 -35.069508
224170000 -0.050210614 -36.409996 -76.391136 171.79407 -72.213638 139.39288 -0.060937747 -36.021698
230660000 -0.057837632 -37.444523 -71.046013 131.91138 -72.551941 142.17776 -0.057563018 -37.114971
237150000 -0.053218011 -38.494892 -71.437218 78.754204 -72.572006 157.9782 -0.060345788 -38.161377
243640000 -0.062016867 -39.57296 -71.290398 102.56484 -81.93853 -166.74652 -0.06209968 -39.22427
250130000 -0.056425825 -40.627182 -73.937393 120.09143 -71.410049 88.434319 -0.064662255 -40.310081
256620000 -0.059336573 -41.70116 -74.17572 67.519852 -81.703484 44.762375 -0.070442334 -41.366695
263110000 -0.058597721 -42.774784 -72.950981 70.129898 -74.959671 57.505302 -0.072060242 -42.401974
269600000 -0.058352523 -43.831787 -71.984436 70.277702 -81.449844 83.152405 -0.074248068 -43.465427
276090000 -0.058307212 -44.837708 -74.728249 85.870544 -76.137184 -37.37746 -0.074333332 -44.471378
282580000 -0.058143213 -45.90324 -80.081535 102.33044 -77.280304 47.334461 -0.071814455 -45.515984
289070000 -0.054298148 -46.917934 -75.837914 -7.2561941 -75.959984 49.548222 -0.075059853 -46.53941
295560000 -0.060557697 -47.895374 -87.519753 -170.83162 -78.102928 121.3109 -0.081450015 -47.567165
302050000 -0.059080806 -48.885529 -73.57029 61.374809 -83.538315 141.51375 -0.084868118 -48.617317
308540000 -0.060733236 -49.891178 -87.435631 -46.259686 -81.958717 42.269218 -0.082723133 -49.63166
315030000 -0.063490503 -50.885548 -84.653725 39.543301 -76.387558 160.79108 -0.08361765 -50.644325
321520000 -0.060860489 -51.883854 -91.003395 -139.24226 -78.011749 39.708244 -0.091246255 -51.695042
328010000 -0.067364313 -52.887012 -73.728119 24.691582 -100.11438 5.2664709 -0.092000321 -52.675842
334500000 -0.070366211 -53.898079 -86.564178 44.108135 -78.997208 90.300552 -0.093551226 -53.729065
340990000 -0.069363162 -54.936485 -88.397438 -147.7924 -88.978905 -27.882486 -0.09544155 -54.727386
347480000 -0.071283005 -55.982941 -80.923309 150.23299 -96.32254 -93.14698 -0.099493407 -55.801636
353970000 -0.070171401 -57.050694 -79.145172 2.5661073 -86.800171 46.979649 -0.099114053 -56.807842
360460000 -0.072289817 -58.099064 -84.834824 -134.14084 -76.868111 179.68494 -0.10212643 -57.806351
366950000 -0.070538104 -59.16433 -78.334724 145.13791 -71.171448 57.637951 -0.096966363 -58.843685
373440000 -0.07096865 -60.237995 -77.862877 -149.88722 -79.238297 -150.19768 -0.10131484 -59.914749
379930000 -0.070684299 -61.293983 -78.794052 -146.14394 -74.095825 145.77197 -0.10301808 -60.928204
386420000 -0.07558503 -62.329922 -81.080032 102.25284 -76.84893 163.98627 -0.10919112 -61.936573
392910000 -0.070256166 -63.360641 -75.264542 108.46983 -76.94619 101.56387 -0.11517716 -62.976707
399400000 -0.072362013 -64.369019 -75.737114 90.016098 -70.801544 113.16218 -0.11482922 -63.991169
405890000 -0.071582958 -65.375618 -74.64521 104.58598 -81.551796 99.483963 -0.11747101 -64.998634
412380000 -0.07747639 -66.361038 -73.578003 124.59344 -73.875717 32.790516 -0.11990098 -65.982941
418870000 -0.0746722 -67.356033 -72.383308 60.552059 -72.702049 82.750999 -0.11989511 -67.002281
425360000 -0.075480305 -68.347305 -69.762497 35.561207 -70.311119 56.797581 -0.11837435 -68.006058
431850000 -0.076657042 -69.359512 -74.943245 62.666981 -77.660797 38.819027 -0.12167843 -69.02713
438340000 -0.080560379 -70.368004 -80.432396 82.776535 -72.730972 68.590553 -0.12180094 -70.075325
444830000 -0.083553284 -71.394066 -84.931877 -96.530396 -83.50782 126.40975 -0.12220044 -71.108772
451320000 -0.082077987 -72.413651 -78.086586 27.569565 -73.240463 53.930489 -0.12647672 -72.104813
457810000 -0.081901595 -73.426109 -75.718834 -73.384949 -79.337578 15.218731 -0.12817016 -73.143631
464300000 -0.081028633 -74.464737 -76.999382 21.127615 -76.71357 -37.493362 -0.12666766 -74.165337
470790000 -0.084191024 -75.471954 -88.403656 153.07478 -90.645203 -148.38382 -0.1268063 -75.170776
477280000 -0.08552637 -76.51931 -70.026276 -18.431427 -78.747658 -8.1067877 -0.12464678 -76.216949
483770000 -0.077208847 -77.534714 -81.457634 -92.833641 -78.951546 91.847099 -0.12852569 -77.256973
490260000 -0.080993369 -78.542931 -75.178581 29.956104 -85.555679 -33.937149 -0.13355623 -78.251678
496750000 -0.08384233 -79.570396 -75.27993 49.291527 -83.114128 -74.739174 -0.13656314 -79.290268
503240000 -0.086729102 -80.561287 -90.82708 -5.0460596 -82.500824 40.74596 -0.13405254 -80.285736
509730000 -0.082586303 -81.587639 -79.916298 -34.539196 -74.321953 4.9638643 -0.14464366 -81.313789
516220000 -0.082685106 -82.585754 -79.814346 -0.19708852 -76.287178 10.203787 -0.13888903 -82.300064
522710000 -0.08087606 -83.581688 -74.208961 26.452486 -78.337784 66.747795 -0.14439885 -83.283684
529200000 -0.087324142 -84.585175 -82.140938 4.7229028 -78.112328 33.132942 -0.14809681 -84.273468
535690000 -0.086668864 -85.576073 -71.495758 -60.892838 -84.227196 3.1641822 -0.14788069 -85.258293
542180000 -0.089033186 -86.608864 -73.454651 -15.99663 -74.904999 11.184112 -0.15128648 -86.311295
548670000 -0.087573558 -87.606155 -75.243439 -48.880161 -69.188316 -12.980489 -0.15214795 -87.315872
555160000 -0.090811715 -88.594719 -78.586967 15.715845 -74.48793 -21.736031 -0.15799449 -88.337753
561650000 -0.089035273 -89.603569 -76.011909 -7.7921009 -73.634918 -36.378693 -0.15736984 -89.34774
568140000 -0.09366031 -90.606369 -75.527199 16.573719 -75.446869 -25.618719 -0.15258467 -90.367416
574630000 -0.086777143 -91.583122 -91.525627 96.298843 -71.938538 -33.6399 -0.16102475 -91.390572
581120000 -0.088418074 -92.55864 -70.973915 -18.308619 -75.145767 -17.513222 -0.15322956 -92.420654
587610000 -0.088019989 -93.573441 -81.5168 -104.18107 -71.442482 -54.887398 -0.16153023 -93.456787
594100000 -0.092315026 -94.547066 -81.681549 163.61671 -90.199234 -95.402641 -0.1618305 -94.439445
600590000 -0.093586758 -95.520561 -72.170517 -41.12751 -71.412224 -31.905958 -0.16561213 -95.455299
607080000 -0.093474858 -96.503777 -75.918236 -39.852524 -76.975845 -90.931488 -0.16290484 -96.461311
613570000 -0.096298061 -97.475937 -71.505692 -59.613045 -72.217476 -40.825771 -0.16736378 -97.443214
620060000 -0.09666127 -98.473732 -77.533112 -79.569847 -75.950256 -42.249725 -0.17288099 -98.436829
626550000 -0.098734282 -99.463661 -74.219994 -48.720036 -72.668343 -36.270481 -0.17532951 -99.410408
633040000 -0.10185516 -100.44955 -86.026527 6.7539115 -74.080307 -40.427876 -0.17695642 -100.40083
639530000 -0.097948842 -101.44763 -73.344276 -70.223495 -78.866249 -34.33316 -0.17482945 -101.41963
646020000 -0.098591983 -102.48463 -73.926147 -73.439072 -77.09314 -28.068237 -0.17402568 -102.37029
652510000 -0.09983246 -103.48689 -73.643555 -33.410793 -71.368401 -39.320301 -0.17717189 -103.40993
659000000 -0.10346176 -104.53918 -70.735069 -48.720486 -73.299515 -73.156776 -0.18235788 -104.42177
665490000 -0.099027514 -105.49848 -68.581017 -66.358238 -68.654053 -64.109619 -0.17751212 -105.39993
671980000 -0.097826019 -106.48159 -69.586853 -69.700287 -70.563416 -57.644993 -0.18615772 -106.37779
678470000 -0.099689819 -107.44805 -68.839638 -79.88533 -73.186798 -58.125 -0.1877719 -107.40073
684960000 -0.099920064 -108.42747 -73.178314 -71.789627 -70.961067 -64.806984 -0.18674797 -108.36339
691450000 -0.096742071 -109.36192 -72.58429 -59.865864 -78.384476 -62.431618 -0.19538754 -109.35114
697940000 -0.10043232 -110.33648 -79.068947 -30.397221 -77.583977 -127.21918 -0.19578338 -110.33755
704430000 -0.10017919 -111.23866 -79.731926 -41.830044 -72.95224 -64.391045 -0.19612911 -111.30434
710920000 -0.099920124 -112.21604 -75.714653 -82.761635 -76.605751 -94.559067 -0.19608222 -112.29839
717410000 -0.10313631 -113.16517 -76.437408 18.599031 -84.543243 -9.0084124 -0.20101111 -113.29313
723900000 -0.10846601 -114.14596 -72.424576 -19.536625 -74.344803 15.757373 -0.19962865 -114.26826
730390000 -0.10406502 -115.11333 -80.647987 -39.51244 -85.21801 9.3240786 -0.19885918 -115.25269
736880000 -0.10393981 -116.11108 -72.922157 -65.134476 -73.988503 7.2928476 -0.20547867 -116.24389
743370000 -0.10830782 -117.13084 -78.417679 96.72541 -76.999763 -66.781769 -0.20507635 -117.2338
749860000 -0.10711198 -118.15424 -69.266212 -42.765537 -89.597176 -90.999069 -0.20344041 -118.22451
756350000 -0.10629915 -119.201 -72.733704 -32.248646 -74.640877 -46.368473 -0.20502296 -119.19944
762840000 -0.10954837 -120.17822 -78.738159 -65.668854 -73.88858 -56.744389 -0.20568912 -120.21827
769330000 -0.11215851 -121.21914 -74.433243 -18.249498 -73.777809 -48.360405 -0.20707268 -121.19941
775820000 -0.11219971 -122.27204 -75.896675 -28.482149 -78.318054 -20.44025 -0.20957632 -122.20079
782310000 -0.1080455 -123.24354 -75.578186 -10.33235 -74.08606 8.812974 -0.21518289 -123.21437
788800000 -0.11763765 -124.20264 -72.709358 -25.418364 -68.987572 -32.078842 -0.21611638 -124.18854
795290000 -0.11212709 -125.19321 -75.817596 -73.248344 -68.535927 -65.995911 -0.21760641 -125.18962
801780000 -0.10549507 -126.11405 -70.128777 -58.947674 -72.148766 -50.944881 -0.22067429 -126.13984
808270000 -0.10822538 -127.04771 -71.472595 -62.089222 -70.444489 -71.469719 -0.22562742 -127.09698
814760000 -0.10835867 -128.00711 -69.546898 -35.747578 -72.091507 -61.070232 -0.23091762 -128.10698
821250000 -0.10586953 -128.9782 -67.618622 -95.118462 -71.938965 -37.463997 -0.22653356 -129.06894
827740000 -0.10678671 -129.89464 -68.829147 -79.441994 -71.192223 -74.286385 -0.22932339 -130.0573
834230000 -0.10612275 -130.88622 -68.144821 -79.935181 -69.391411 -77.640572 -0.22730179 -131.01825
840720000 -0.11315707 -131.90099 -69.992134 -110.75874 -71.958672 -86.781059 -0.23187743 -132.00612
847210000 -0.10903359 -132.88806 -64.651375 -93.984406 -68.25769 -102.73985 -0.23886915 -133.02122
853700000 -0.10673894 -133.91785 -67.331924 -122.23079 -66.293114 -101.36638 -0.23628652 -133.98807
860190000 -0.10911378 -134.93488 -67.09034 -144.72906 -70.142746 -125.76116 -0.23381446 -134.9642
866680000 -0.11639214 -135.94777 -67.291359 -137.46446 -69.526878 -129.18524 -0.24034716 -135.95535
873170000 -0.10864861 -136.94142 -72.645569 -161.70009 -67.077179 -142.68407 -0.24500276 -136.91869
879660000 -0.11316434 -137.97076 -66.055367 -152.84627 -71.187172 -151.53674 -0.2419685 -137.92255
886150000 -0.10921653 -138.95924 -69.890282 -179.09552 -76.108315 151.47194 -0.24243253 -138.89267
892640000 -0.1123392 -139.93092 -73.969818 166.32074 -68.485733 173.91951 -0.25108138 -139.88737
899130000 -0.11042416 -140.92641 -73.168884 165.16634 -71.100533 -173.41078 -0.24842951 -140.79558
905620000 -0.10799254 -141.84424 -95.182655 -136.46475 -80.51313 -177.49623 -0.24749297 -141.80659
912110000 -0.10759443 -142.77036 -80.328354 148.23473 -77.794563 -145.6041 -0.2482437 -142.73337
918600000 -0.10992772 -143.69095 -77.65789 -120.0963 -81.284935 -77.188271 -0.25044087 -143.77347
925090000 -0.10789204 -144.59633 -85.041344 30.176569 -75.076729 -130.30586 -0.25146085 -144.67484
931580000 -0.10694498 -145.53236 -74.658211 -113.11181 -79.926048 -133.14485 -0.25442681 -145.72479
938070000 -0.10701006 -146.47789 -70.308159 -121.81592 -70.837227 -135.26036 -0.2533823 -146.69911
944560000 -0.10192204 -147.41336 -74.197021 -121.87788 -74.372063 -117.2494 -0.24952978 -147.71686
951050000 -0.11407997 -148.35928 -69.541985 -134.70798 -68.315376 -150.48454 -0.24919938 -148.74884
957540000 -0.1154399 -149.36299 -70.64016 -125.49162 -69.434929 -133.59839 -0.25760955 -149.72357
964030000 -0.1201839 -150.33655 -71.103149 -130.95264 -66.289368 -134.48405 -0.25667763 -150.75453
970520000 -0.12474402 -151.35466 -67.614319 -164.93425 -67.815094 -128.91772 -0.25897399 -151.74716
977010000 -0.12431829 -152.33684 -66.039482 -130.39941 -65.697304 -151.72835 -0.25809661 -152.70853
983500000 -0.12229398 -153.34985 -64.668236 -142.07599 -69.229843 -161.21007 -0.26330552 -153.72824
989990000 -0.12146133 -154.33609 -64.647644 -159.3741 -66.047379 -150.90913 -0.26411399 -154.68224
996480000 -0.12206922 -155.32581 -63.095554 -162.41502 -68.373817 -167.18285 -0.27120778 -155.72392
1002970000 -0.1268521 -156.35609 -66.780327 -158.05818 -66.158463 -158.36185 -0.26850936 -156.70436
1009460000 -0.11927448 -157.33368 -65.004631 -161.99741 -64.37484 -148.52103 -0.27175853 -157.6748
1015950000 -0.109873 -158.28024 -62.863525 -173.58626 -64.528229 -154.26723 -0.27585632 -158.62367
1022440000 -0.11471919 -159.28569 -65.993828 -168.28671 -63.978333 -148.21779 -0.27563488 -159.65216
1028930000 -0.11868253 -160.21933 -63.491386 -176.9935 -65.409065 -167.41557 -0.27712578 -160.56929
1035420000 -0.11648243 -161.19934 -64.14151 -168.17445 -63.174347 -179.67996 -0.2751362 -161.5793
1041910000 -0.11404576 -162.18636 -63.541924 -175.83817 -63.378071 -172.1913 -0.28696793 -162.58632
1048400000 -0.12161813 -163.14606 -62.158638 172.39928 -62.71146 172.75597 -0.28772429 -163.53226
1054890000 -0.12354057 -164.11807 -62.718018 162.35677 -63.589211 163.1992 -0.29439062 -164.51633
1061380000 -0.12987927 -165.10533 -64.371208 160.35582 -64.813332 161.41383 -0.29722369 -165.46523
1067870000 -0.13175307 -166.05431 -62.010872 143.05843 -61.889091 157.51233 -0.31385222 -166.39722
1074360000 -0.12828591 -167.02109 -61.64378 142.63232 -62.687122 150.87021 -0.31608835 -167.35181
1080850000 -0.13791643 -167.96222 -65.667389 115.58393 -64.014717 123.53311 -0.31162944 -168.23415
1087340000 -0.13077579 -168.91812 -62.301777 157.16461 -65.17588 128.37317 -0.31248569 -169.28931
1093830000 -0.12800658 -169.9343 -60.995312 138.04881 -61.393211 134.99568 -0.31471393 -170.25894
1100320000 -0.12698956 -170.86774 -60.177849 133.69994 -61.722279 133.91615 -0.31185871 -171.35506
1106810000 -0.1296038 -171.88332 -57.94886 123.30329 -58.488899 129.89984 -0.32768229 -172.37485
1113300000 -0.13000835 -172.83484 -57.062366 103.09228 -57.427029 112.43317 -0.33613697 -173.33537
1119790000 -0.13364382 -173.83353 -56.508343 100.23341 -56.374935 101.19533 -0.35866886 -174.35402
1126280000 -0.13508359 -174.76944 -55.253777 88.368698 -55.348476 80.558113 -0.37854201 -175.25864
1132770000 -0.13293453 -175.76581 -56.149616 74.182777 -56.728653 70.443588 -0.39777687 -176.14516
1139260000 -0.13709098 -176.73192 -54.555695 49.357639 -54.909046 48.933006 -0.40158057 -176.89885
1145750000 -0.14470775 -177.72647 -55.726032 26.924288 -55.592529 29.248814 -0.40197191 -177.65636
1152240000 -0.1467559 -178.72705 -56.95668 16.293636 -57.417221 14.3435 -0.38835254 -178.5262
1158730000 -0.14995995 -179.70392 -56.61676 -6.6883254 -57.302208 -6.7543712 -0.35956064 -179.3972
1165220000 -0.15335566 179.33575 -59.202072 -3.5119128 -59.057083 -22.98501 -0.34772107 179.59526
1171710000 -0.15754525 178.37329 -59.850468 -36.600559 -59.949486 -39.532047 -0.33839303 178.66043
1178200000 -0.16153345 177.40422 -63.855522 -32.112915 -63.205723 -45.345562 -0.32172683 177.689
1184690000 -0.15780966 176.444 -62.7164 -48.700607 -64.005959 -55.258026 -0.31828588 176.64903
1191180000 -0.15968895 175.47156 -65.369743 -49.211609 -62.894272 -56.180897 -0.31783038 175.62946
1197670000 -0.15176775 174.51553 -63.833263 -66.809418 -63.315155 -71.810539 -0.31442386 174.62057
1204160000 -0.14886445 173.5217 -64.770126 -85.561485 -64.624664 -84.677826 -0.30566239 173.52502
1210650000 -0.14687632 172.5988 -65.476799 -103.03384 -62.613213 -77.386673 -0.31332257 172.53389
1217140000 -0.14453684 171.65164 -64.661598 -99.805176 -65.085991 -94.006149 -0.31022274 171.49738
1223630000 -0.13570151 170.61607 -62.580605 -112.13322 -64.77224 -104.62737 -0.30791497 170.53116
1230120000 -0.13843296 169.70949 -63.818981 -105.71471 -65.13356 -109.5053 -0.30481413 169.50482
1236610000 -0.142906 168.6983 -63.256668 -122.88759 -65.267975 -125.68943 -0.30392289 168.48401
1243100000 -0.14717197 167.63379 -64.027489 -123.86813 -61.795944 -102.31976 -0.30898735 167.43648
1249590000 -0.15039831 166.62566 -62.868942 -136.07082 -62.715946 -139.36292 -0.30051389 166.45476
1256080000 -0.15254779 165.58287 -63.600304 -140.57178 -63.184204 -136.54126 -0.30263796 165.48109
1262570000 -0.15908267 164.47363 -60.530441 -139.16444 -60.400753 -148.0833 -0.30121174 164.52727
1269060000 -0.15921992 163.49104 -60.400597 -141.02216 -60.463615 -141.00368 -0.30494991 163.5654
1275550000 -0.16729088 162.36357 -61.455914 -145.68803 -60.173622 -163.36003 -0.30351201 162.58093
1282040000 -0.17244411 161.30582 -61.55798 -157.6534 -61.356026 -149.93616 -0.31491321 161.64317
