!Keysight Technologies,P9371A,MY57211172,A.13.10.05
!Date: Monday, March 30, 2026 15:12:22
!Correction: S11(Full 2 Port(1,2)) 
!S1P File: Measurement: S11:
# Hz S  dB   R 50
10000000 -0.30204242 -20.521378
16490000 -0.59355611 -32.152725
22980000 -1.3241391 -43.68206
29470000 -1.8953792 -53.384941
35960000 -2.4932244 -63.051723
42450000 -3.4237683 -70.117485
48940000 -3.9649341 -74.909782
55430000 -4.3629441 -79.486778
61920000 -4.692122 -83.919449
68410000 -4.9773135 -87.939835
74900000 -5.2089701 -91.618546
81390000 -5.3813343 -94.947754
87880000 -5.5221047 -98.038467
94370000 -5.6176624 -100.97368
100860000 -5.6789274 -103.6128
107350000 -5.7114453 -106.15641
113840000 -5.7126603 -108.55685
120330000 -5.6954403 -110.84115
126820000 -5.6475778 -113.02576
133310000 -5.587903 -115.13744
139800000 -5.4969873 -117.2784
146290000 -5.4506421 -119.70173
152780000 -5.4319863 -121.05487
159270000 -5.2966061 -122.57481
165760000 -5.1481695 -124.54013
172250000 -5.0119114 -126.73064
178740000 -4.9664712 -129.14409
185230000 -5.0158858 -130.86246
191720000 -4.9314499 -131.51538
198210000 -4.7480383 -132.95695
204700000 -4.5767388 -134.65933
211190000 -4.3945594 -136.54811
217680000 -4.2028036 -138.57283
224170000 -4.0132389 -140.95294
230660000 -3.8248432 -143.81654
237150000 -3.6872897 -147.48689
243640000 -3.8039267 -151.6534
250130000 -4.163878 -155.18245
256620000 -4.6914477 -155.62953
263110000 -4.9028673 -153.83031
269600000 -4.5953069 -155.28027
276090000 -5.5312881 -155.41656
282580000 -4.8316426 -150.24509
289070000 -4.2209353 -151.75531
295560000 -3.856571 -154.38922
302050000 -3.5759952 -157.60449
308540000 -3.503 -162.30081
315030000 -3.7529094 -166.6561
321520000 -4.3776503 -170.08257
328010000 -5.1386061 -169.4595
334500000 -5.5193691 -166.36461
340990000 -5.431654 -163.02374
347480000 -5.1104445 -161.41742
353970000 -4.7706728 -161.00156
360460000 -4.463685 -161.40053
366950000 -4.2022748 -162.09773
373440000 -3.9686844 -163.00952
379930000 -3.7588596 -164.09698
386420000 -3.5795486 -165.26178
392910000 -3.4143977 -166.5705
399400000 -3.2657068 -167.95937
405890000 -3.1412416 -169.33678
412380000 -3.0304766 -170.77939
418870000 -2.9249492 -172.35466
425360000 -2.8398983 -173.92665
431850000 -2.7767119 -175.40445
438340000 -2.720825 -176.8844
444830000 -2.6388896 -178.39436
451320000 -2.5997944 179.74879
457810000 -2.5912421 178.0896
464300000 -2.6415503 176.39148
470790000 -2.6919115 175.05888
477280000 -2.7722852 173.96017
483770000 -2.8121514 172.94226
490260000 -2.8598568 171.78848
496750000 -2.9422076 170.98462
503240000 -3.0203514 170.19193
509730000 -3.0969849 169.68539
516220000 -3.1204443 169.10713
522710000 -3.1278675 168.45909
529200000 -3.184459 167.77092
535690000 -3.2614591 167.22923
542180000 -3.3340724 166.99066
548670000 -3.3692362 166.90431
555160000 -3.3932965 167.11574
561650000 -3.3263528 167.23503
568140000 -3.246985 167.20169
574630000 -3.139967 166.89586
581120000 -3.0061812 166.38327
587610000 -2.9360778 165.59454
594100000 -2.846113 164.71729
600590000 -2.7722061 163.95892
607080000 -2.694576 162.80522
613570000 -2.6656721 161.6199
620060000 -2.6754141 160.49538
626550000 -2.7051277 159.67493
633040000 -2.7361257 158.90985
639530000 -2.7568858 158.65965
646020000 -2.7024639 158.35329
652510000 -2.6491678 157.95401
659000000 -2.5540512 157.36064
665490000 -2.4626033 156.64882
671980000 -2.3811617 155.7583
678470000 -2.3090045 154.79381
684960000 -2.2595644 153.71205
691450000 -2.2117507 152.68405
697940000 -2.1793728 151.58592
704430000 -2.1516776 150.4603
710920000 -2.150794 149.27536
717410000 -2.1502295 148.19814
723900000 -2.1681607 147.10365
730390000 -2.1852279 146.10042
736880000 -2.2218611 145.10378
743370000 -2.2627108 144.32298
749860000 -2.2922947 143.47133
756350000 -2.3462853 142.70601
762840000 -2.4235308 142.27744
769330000 -2.4991975 142.07292
775820000 -2.5573001 142.08223
782310000 -2.545505 142.38617
788800000 -2.4942358 142.55862
795290000 -2.4152255 142.48422
801780000 -2.3110116 142.11746
808270000 -2.2268028 141.60327
814760000 -2.153101 140.93613
821250000 -2.091486 140.13979
827740000 -2.0344107 139.38457
834230000 -1.9910339 138.60339
840720000 -1.9515641 137.78098
847210000 -1.9038023 137.01692
853700000 -1.8678997 136.2498
860190000 -1.8292102 135.49847
866680000 -1.7946885 134.81075
873170000 -1.7568917 134.08517
879660000 -1.7318425 133.4192
886150000 -1.6988413 132.7701
892640000 -1.6787674 132.12679
899130000 -1.65072 131.4919
905620000 -1.6217668 130.8028
912110000 -1.6029614 130.17099
918600000 -1.5789011 129.45836
925090000 -1.5535095 128.7608
931580000 -1.5332477 128.01404
938070000 -1.5098512 127.22675
944560000 -1.4804018 126.45341
951050000 -1.4657326 125.74224
957540000 -1.438462 124.89699
964030000 -1.410499 124.15315
970520000 -1.3902736 123.37181
977010000 -1.3628354 122.60207
983500000 -1.3412375 121.81239
989990000 -1.3137169 121.07636
996480000 -1.2956743 120.32254
1002970000 -1.2914587 119.52055
1009460000 -1.2752271 118.76141
1015950000 -1.2635882 117.99523
1022440000 -1.2665602 117.24319
1028930000 -1.2754564 116.5364
1035420000 -1.285346 115.87225
1041910000 -1.2903773 115.2051
1048400000 -1.3017526 114.64787
1054890000 -1.2981 114.12675
1061380000 -1.2917179 113.61342
1067870000 -1.2720162 113.09574
1074360000 -1.2373607 112.54705
1080850000 -1.2157601 111.98669
1087340000 -1.1797966 111.37608
1093830000 -1.165561 110.69553
1100320000 -1.1403747 110.05959
1106810000 -1.1211216 109.40346
1113300000 -1.1023701 108.74136
1119790000 -1.0898319 108.04037
1126280000 -1.0693349 107.38731
1132770000 -1.0532323 106.61475
1139260000 -1.0298641 105.92181
1145750000 -1.0201221 105.22589
1152240000 -1.0065075 104.50122
1158730000 -0.9875955 103.77583
1165220000 -0.9644118 103.11755
1171710000 -0.9493683 102.38575
1178200000 -0.93354207 101.72257
1184690000 -0.91603434 101.0284
1191180000 -0.90240794 100.32428
1197670000 -0.88313615 99.634872
1204160000 -0.87755442 98.95713
1210650000 -0.8647489 98.249435
1217140000 -0.84814727 97.571892
1223630000 -0.83901036 96.74501
1230120000 -0.83080387 96.118279
1236610000 -0.82067645 95.361206
1243100000 -0.81855768 94.580612
1249590000 -0.80780131 93.896271
1256080000 -0.79596835 93.157043
1262570000 -0.79182696 92.441536
1269060000 -0.76487476 91.775108
1275550000 -0.76187104 91.095146
1282040000 -0.74813348 90.427193
1288530000 -0.746059 89.897575
1295020000 -0.72405434 89.24369
1301510000 -0.72381061 88.610962
1308000000 -0.71342653 88.009346
1314490000 -0.70891345 87.428078
1320980000 -0.70648062 86.842972
1327470000 -0.70291281 86.148804
1333960000 -0.69128489 85.42691
1340450000 -0.68045783 84.762733
1346940000 -0.67567521 84.081764
1353430000 -0.67237902 83.331924
1359920000 -0.66581655 82.574791
1366410000 -0.65178877 81.901779
1372900000 -0.63849509 81.128548
1379390000 -0.63136733 80.436806
1385880000 -0.61640066 79.748337
1392370000 -0.60600626 79.036781
1398860000 -0.5982917 78.361542
1405350000 -0.58574164 77.697609
1411840000 -0.5837152 77.052994
1418330000 -0.57236421 76.375473
1424820000 -0.56558859 75.723602
1431310000 -0.56554443 74.984589
1437800000 -0.56217015 74.345589
1444290000 -0.55713195 73.584221
1450780000 -0.55838877 72.842216
1457270000 -0.55655158 72.099434
1463760000 -0.54960871 71.415871
1470250000 -0.55091459 70.621132
1476740000 -0.55049783 69.89122
1483230000 -0.55070996 69.233047
1489720000 -0.54390365 68.554985
1496210000 -0.5438205 67.894623
1502700000 -0.54993016 67.270309
1509190000 -0.54132187 66.748894
1515680000 -0.5452792 66.149605
1522170000 -0.53567928 65.590126
1528660000 -0.53009182 64.958855
1535150000 -0.52551353 64.406731
1541640000 -0.52560484 63.782505
1548130000 -0.51826108 63.171124
1554620000 -0.51218826 62.520672
1561110000 -0.50680023 61.853703
1567600000 -0.50016695 61.09193
1574090000 -0.4941572 60.474155
1580580000 -0.48851624 59.763916
1587070000 -0.48322231 59.082142
1593560000 -0.46528012 58.436005
1600050000 -0.47029442 57.761826
1606540000 -0.45500886 57.132542
1613030000 -0.44200379 56.549252
1619520000 -0.4493283 55.884876
1626010000 -0.44410685 55.260132
1632500000 -0.43556491 54.65004
1638990000 -0.42917696 54.094963
1645480000 -0.43036884 53.453751
1651970000 -0.43362805 52.789127
1658460000 -0.43222269 52.146118
1664950000 -0.42588186 51.494846
1671440000 -0.42894864 50.802345
1677930000 -0.42417115 50.090034
1684420000 -0.42424065 49.379707
1690910000 -0.41396365 48.688175
1697400000 -0.41594389 48.002117
1703890000 -0.40594032 47.260986
1710380000 -0.40744194 46.651207
1716870000 -0.40017909 45.966232
1723360000 -0.3936488 45.286922
1729850000 -0.39369762 44.630772
1736340000 -0.38865781 44.009457
1742830000 -0.37838718 43.347137
1749320000 -0.3748126 42.721889
1755810000 -0.36974466 42.135677
1762300000 -0.36209917 41.481972
1768790000 -0.35793781 40.896172
1775280000 -0.34973812 40.286194
1781770000 -0.35781264 39.575954
1788260000 -0.34223434 38.936691
1794750000 -0.35205927 38.334312
1801240000 -0.33836415 37.68903
1807730000 -0.3349342 37.027237
1814220000 -0.33369634 36.444874
1820710000 -0.33174518 35.762581
1827200000 -0.3321346 35.089737
1833690000 -0.33542371 34.398754
1840180000 -0.33960244 33.722176
1846670000 -0.33583102 32.995201
1853160000 -0.33949959 32.319981
1859650000 -0.33389074 31.623804
1866140000 -0.33594698 30.94306
1872630000 -0.32830268 30.281351
1879120000 -0.32748768 29.588917
1885610000 -0.32648513 28.925718
1892100000 -0.31733122 28.180244
1898590000 -0.31357566 27.607281
1905080000 -0.30743846 26.942568
1911570000 -0.30905184 26.301788
1918060000 -0.30851653 25.718706
1924550000 -0.3166756 25.139072
1931040000 -0.31848016 24.509356
1937530000 -0.31774387 23.835131
1944020000 -0.31877658 23.255497
1950510000 -0.31609491 22.676647
1957000000 -0.32018092 22.007135
1963490000 -0.32649592 21.369635
1969980000 -0.32855976 20.625376
1976470000 -0.32136813 19.910254
1982960000 -0.33103621 19.219025
1989450000 -0.32307252 18.480818
1995940000 -0.31846422 17.758221
2002430000 -0.31493947 17.078825
2008920000 -0.30920428 16.425215
2015410000 -0.30259967 15.732078
2021900000 -0.29150617 15.056387
2028390000 -0.29749686 14.430054
2034880000 -0.29957822 13.773453
2041370000 -0.29260421 13.178358
2047860000 -0.29024413 12.477386
2054350000 -0.2919409 11.893495
2060840000 -0.28493264 11.214779
2067330000 -0.28536257 10.567568
2073820000 -0.288459 9.8712959
2080310000 -0.28815961 9.1817436
2086800000 -0.27639797 8.5869637
2093290000 -0.27647296 7.8783007
2099780000 -0.27787089 7.1364503
2106270000 -0.28407758 6.4680681
2112760000 -0.27481797 5.8012166
2119250000 -0.27293134 5.1280775
2125740000 -0.27296236 4.4222002
2132230000 -0.27361038 3.7242661
2138720000 -0.26447076 3.0282981
2145210000 -0.26975411 2.4010286
2151700000 -0.26038915 1.6962787
2158190000 -0.26444083 0.97344667
2164680000 -0.2691026 0.28031734
2171170000 -0.27740976 -0.38344529
2177660000 -0.27458593 -1.0263062
2184150000 -0.26814047 -1.7603858
2190640000 -0.26786613 -2.4588864
2197130000 -0.26196823 -3.1506112
2203620000 -0.26402304 -3.7536969
2210110000 -0.26219517 -4.5046697
2216600000 -0.26656473 -5.0648746
2223090000 -0.26450393 -5.8041143
2229580000 -0.25925258 -6.496006
2236070000 -0.26281145 -7.2501664
2242560000 -0.26706767 -7.9254341
2249050000 -0.25934479 -8.6933393
2255540000 -0.25838381 -9.3325615
2262030000 -0.2577906 -10.048437
2268520000 -0.26294437 -10.778742
2275010000 -0.2647925 -11.541886
2281500000 -0.26379779 -12.221931
2287990000 -0.25850812 -12.955701
2294480000 -0.27002388 -13.678693
2300970000 -0.27107844 -14.392544
2307460000 -0.27079102 -15.106339
2313950000 -0.26364344 -15.753323
2320440000 -0.26708835 -16.431541
2326930000 -0.26172936 -17.174198
2333420000 -0.26529953 -17.876522
2339910000 -0.26814783 -18.66213
2346400000 -0.27319193 -19.328533
2352890000 -0.28212759 -20.059486
2359380000 -0.27402115 -20.765318
2365870000 -0.27485868 -21.601679
2372360000 -0.28539076 -22.344255
2378850000 -0.28349879 -23.161308
2385340000 -0.28003842 -23.897877
2391830000 -0.28339124 -24.668447
2398320000 -0.28378651 -25.432566
2404810000 -0.28139204 -26.184221
2411300000 -0.28376803 -26.966921
2417790000 -0.28405228 -27.691069
2424280000 -0.28288031 -28.398918
2430770000 -0.28732148 -29.116625
2437260000 -0.28398079 -29.908112
2443750000 -0.28402281 -30.615015
2450240000 -0.28922379 -31.431896
2456730000 -0.3015027 -32.24799
2463220000 -0.31353346 -32.985447
2469710000 -0.30995262 -33.82666
2476200000 -0.30911979 -34.64212
2482690000 -0.31554213 -35.46312
2489180000 -0.3239961 -36.326923
2495670000 -0.32497817 -37.24752
2502160000 -0.32037863 -38.064468
2508650000 -0.31589201 -38.872036
2515140000 -0.30977121 -39.787018
2521630000 -0.32831457 -40.633377
2528120000 -0.32113048 -41.414936
2534610000 -0.34121305 -42.243767
2541100000 -0.34723574 -42.973404
2547590000 -0.33877337 -43.85268
2554080000 -0.34916693 -44.650547
2560570000 -0.35813814 -45.451447
2567060000 -0.35651231 -46.398357
2573550000 -0.35167757 -47.275131
2580040000 -0.36615762 -48.218891
2586530000 -0.3843385 -49.278347
2593020000 -0.39068973 -50.172291
2599510000 -0.39244837 -51.157761
2606000000 -0.40058595 -52.058449
2612490000 -0.40887344 -53.045654
2618980000 -0.41454649 -53.945683
2625470000 -0.41027147 -55.012436
2631960000 -0.42765522 -55.96912
2638450000 -0.44848904 -56.935863
2644940000 -0.45655328 -57.94783
2651430000 -0.48344254 -58.886387
2657920000 -0.50257051 -59.807461
2664410000 -0.52004713 -60.880863
2670900000 -0.53031838 -61.825554
2677390000 -0.53277749 -62.903011
2683880000 -0.53968704 -64.008011
2690370000 -0.55241072 -65.126808
2696860000 -0.56312978 -66.244339
2703350000 -0.57136923 -67.453827
2709840000 -0.59469563 -68.592949
2716330000 -0.60878438 -69.828232
2722820000 -0.63063461 -70.892593
2729310000 -0.63224703 -71.994156
2735800000 -0.63780016 -73.240997
2742290000 -0.65304083 -74.478729
2748780000 -0.65178019 -75.76976
2755270000 -0.68620926 -77.116348
2761760000 -0.72567856 -78.616058
2768250000 -0.7813102 -79.998154
2774740000 -0.8125509 -81.336784
2781230000 -0.84886694 -82.79052
2787720000 -0.89177591 -84.1633
2794210000 -0.91195065 -85.588219
2800700000 -0.93450832 -87.315536
2807190000 -0.98205137 -89.1129
2813680000 -1.0557983 -90.881889
2820170000 -1.1151298 -92.551247
2826660000 -1.1933962 -94.207573
2833150000 -1.264341 -95.967667
2839640000 -1.3702291 -97.72583
2846130000 -1.4435185 -99.433273
2852620000 -1.5016172 -101.29161
2859110000 -1.5893514 -103.38727
2865600000 -1.707372 -105.51939
2872090000 -1.8086693 -107.86814
2878580000 -1.961936 -110.34586
2885070000 -2.1391206 -112.82675
2891560000 -2.3351686 -115.07261
2898050000 -2.5117614 -117.36932
2904540000 -2.7007999 -119.95969
2911030000 -2.9186809 -122.51485
2917520000 -3.1365197 -125.06272
2924010000 -3.3540504 -128.18335
2930500000 -3.6605198 -131.54494
2936990000 -4.0478735 -134.75903
2943480000 -4.4993911 -137.89862
2949970000 -5.056561 -140.96863
2956460000 -5.6186323 -143.11966
2962950000 -6.1260161 -145.75685
2969440000 -6.8476491 -147.8562
2975930000 -7.4202757 -150.37617
2982420000 -8.2125082 -152.93143
2988910000 -9.1788816 -154.73274
2995400000 -10.435553 -154.0024
3001890000 -11.46368 -149.55681
3008380000 -11.967366 -141.71548
3014870000 -11.735632 -134.28011
3021360000 -10.83112 -129.95253
3027850000 -9.7513275 -128.88121
3034340000 -8.457408 -130.57841
3040830000 -7.2730684 -136.03197
3047320000 -6.2421951 -144.0648
3053810000 -5.3634067 -153.88707
3060300000 -4.6131783 -165.74533
3066790000 -4.1214008 -178.91353
3073280000 -3.8738391 167.49457
3079770000 -3.7139237 153.70302
3086260000 -3.6537337 140.18495
3092750000 -3.6450052 127.17496
3099240000 -3.6448736 114.75856
3105730000 -3.6293764 103.27401
3112220000 -3.5897107 92.270996
3118710000 -3.5131812 82.146294
3125200000 -3.4258106 72.513733
3131690000 -3.3579762 63.717854
3138180000 -3.2397356 55.525715
3144670000 -3.1307573 48.123581
3151160000 -2.9984834 41.436325
3157650000 -2.8217576 35.063511
3164140000 -2.6565409 29.223207
3170630000 -2.4984505 23.812948
3177120000 -2.3364563 18.797247
3183610000 -2.1850336 13.945054
3190100000 -2.0724065 9.7040682
3196590000 -1.9464499 5.7490983
3203080000 -1.8531531 1.9121646
3209570000 -1.7604579 -1.6080049
3216060000 -1.6612136 -4.8426752
3222550000 -1.5580766 -8.0245914
3229040000 -1.4733539 -11.182751
3235530000 -1.3789259 -14.091838
3242020000 -1.2965049 -16.921724
3248510000 -1.2299682 -19.637161
3255000000 -1.1495975 -22.226614
3261490000 -1.0941274 -24.66968
3267980000 -1.0202646 -27.043392
3274470000 -0.96241307 -29.186779
3280960000 -0.89939791 -31.184608
3287450000 -0.82799053 -33.169205
3293940000 -0.7634089 -35.019939
3300430000 -0.71971494 -36.971191
3306920000 -0.66855133 -38.743732
3313410000 -0.63652688 -40.495502
3319900000 -0.60543394 -42.187168
3326390000 -0.55930549 -43.9016
3332880000 -0.52767038 -45.553223
3339370000 -0.48888043 -47.119083
3345860000 -0.44150037 -48.792736
3352350000 -0.40039459 -50.339451
3358840000 -0.37538907 -51.900761
3365330000 -0.32453826 -53.396381
3371820000 -0.29739729 -54.868484
3378310000 -0.2535516 -56.204182
3384800000 -0.23136927 -57.647636
3391290000 -0.19421391 -58.849709
3397780000 -0.16554089 -60.100658
3404270000 -0.13272397 -61.361839
3410760000 -0.11155186 -62.58215
3417250000 -0.077975795 -63.884018
3423740000 -0.058873542 -65.274933
3430230000 -0.035831828 -66.378395
3436720000 -0.015556584 -67.711876
3443210000 0.0017880347 -69.074013
3449700000 0.033398278 -70.184448
3456190000 0.050417162 -71.363846
3462680000 0.087197036 -72.606575
3469170000 0.11593773 -73.767029
3475660000 0.13834117 -74.7528
3482150000 0.16720161 -75.937141
3488640000 0.19954799 -77.002777
3495130000 0.2218339 -78.029198
3501620000 0.25729114 -79.144951
3508110000 0.27088416 -80.079918
3514600000 0.29694605 -81.060249
3521090000 0.30559781 -82.207253
3527580000 0.32464147 -83.119438
3534070000 0.34396011 -84.229218
3540560000 0.3687548 -85.226532
3547050000 0.38298541 -86.244431
3553540000 0.41082644 -87.428932
3560030000 0.43298572 -88.451881
3566520000 0.44711697 -89.537857
3573010000 0.46848655 -90.56694
3579500000 0.4910261 -91.651176
3585990000 0.51777858 -92.689865
3592480000 0.54933476 -93.739899
3598970000 0.5621655 -94.763023
3605460000 0.57325011 -95.739037
3611950000 0.60077024 -96.796181
3618440000 0.60728759 -97.817101
3624930000 0.63766593 -98.823402
3631420000 0.65330559 -99.816956
3637910000 0.6676116 -100.86907
3644400000 0.69157803 -101.94672
3650890000 0.717264 -102.87506
3657380000 0.73761851 -103.93665
3663870000 0.7742185 -105.02254
3670360000 0.78636807 -106.03151
3676850000 0.8032487 -107.16055
3683340000 0.803442 -108.14975
3689830000 0.84207487 -109.18098
3696320000 0.85369962 -110.1854
3702810000 0.87160903 -111.29065
3709300000 0.88187605 -112.36351
3715790000 0.89621162 -113.37994
3722280000 0.91157204 -114.42555
3728770000 0.93133914 -115.47594
3735260000 0.93998325 -116.57492
3741750000 0.9651655 -117.64864
3748240000 0.98621237 -118.68684
3754730000 0.99326009 -119.6765
3761220000 1.0125177 -120.77169
3767710000 1.0416312 -121.75329
3774200000 1.0400391 -122.76118
3780690000 1.0603611 -123.90425
3787180000 1.0789453 -124.94934
3793670000 1.079303 -126.13966
3800160000 1.0843922 -127.16326
3806650000 1.0937531 -128.32875
3813140000 1.1073142 -129.63225
3819630000 1.1145514 -130.81882
3826120000 1.1455137 -132.04889
3832610000 1.1351718 -133.32309
3839100000 1.1593968 -134.52357
3845590000 1.1569873 -135.88698
3852080000 1.1803569 -137.04156
3858570000 1.2168652 -138.27457
3865060000 1.2222741 -139.31239
3871550000 1.2322555 -140.58417
3878040000 1.237106 -141.58559
3884530000 1.2578934 -142.80801
3891020000 1.2506841 -143.83008
3897510000 1.2623899 -144.97896
3904000000 1.2589101 -146.26176
3910490000 1.2429327 -147.34634
3916980000 1.2322416 -148.64645
3923470000 1.2155709 -150.0817
3929960000 1.2324635 -151.44337
3936450000 1.2101727 -152.83649
3942940000 1.2075166 -154.35834
3949430000 1.2042122 -155.87219
3955920000 1.209512 -157.39883
3962410000 1.229113 -158.78691
