!Keysight Technologies,P9371A,MY57211172,A.13.10.05
!Date: Monday, March 30, 2026 15:56:23
!Correction: S11(Full 2 Port(1,2)) 
!S21(Full 2 Port(1,2)) 
!S12(Full 2 Port(1,2)) 
!S22(Full 2 Port(1,2)) 
!S2P File: Measurements: S11, S21, S12, S22:
# Hz S  dB   R 50
10000000 -44.94902 -94.00872 0.0018137295 -3.8734648 0.0020178303 -3.8864532 -42.12463 -96.014236
16490000 -40.313511 -10.735447 0.027692279 -6.1851811 0.024608873 -6.1758208 -39.045029 -23.786676
22980000 -32.302547 -96.89196 -0.007814182 -8.9427395 -0.006384511 -8.9110384 -31.06978 -100.5473
29470000 -29.515116 -102.25996 -0.01546917 -11.395938 -0.01192908 -11.385661 -28.846001 -104.11777
35960000 -27.687323 -103.63336 -0.02914305 -13.850831 -0.020247977 -13.865055 -27.215818 -106.74251
42450000 -26.218725 -106.76786 -0.030698795 -16.326626 -0.029678889 -16.329639 -25.928209 -109.52612
48940000 -24.906851 -108.74515 -0.037292045 -18.79986 -0.038771871 -18.78557 -24.719261 -112.38589
55430000 -23.80654 -111.52792 -0.045898795 -21.228832 -0.041462034 -21.211182 -23.717655 -115.34785
61920000 -22.888708 -113.86895 -0.049943119 -23.658998 -0.050107669 -23.662992 -22.937922 -117.09593
68410000 -21.970856 -115.97925 -0.058774583 -26.129396 -0.061735574 -26.126566 -22.104439 -119.85186
74900000 -21.333656 -119.28702 -0.065624908 -28.578941 -0.067111142 -28.57151 -21.399944 -121.45033
81390000 -20.55275 -121.14359 -0.078137673 -31.018776 -0.078547455 -31.020683 -20.717062 -124.45646
87880000 -20.08362 -123.47254 -0.082228869 -33.461105 -0.085638553 -33.457653 -20.144577 -126.50571
94370000 -19.512568 -126.28636 -0.09096887 -35.91412 -0.094961569 -35.925724 -19.741358 -128.90189
100860000 -18.928629 -128.42601 -0.10498594 -38.35289 -0.10108295 -38.370728 -19.226307 -131.16309
107350000 -18.505667 -130.67618 -0.11190299 -40.781178 -0.11705805 -40.805489 -18.77355 -133.98933
113840000 -17.977854 -133.13896 -0.12491477 -43.216934 -0.12402188 -43.247093 -18.296984 -136.16988
120330000 -17.614491 -135.65709 -0.12947066 -45.645905 -0.13199624 -45.679096 -17.89142 -138.38957
126820000 -17.171476 -138.26724 -0.13934033 -48.064259 -0.1390557 -48.06834 -17.528664 -140.93686
133310000 -16.798433 -140.56601 -0.14890936 -50.519844 -0.15053992 -50.506836 -17.097374 -143.50743
139800000 -16.434505 -142.57611 -0.16023315 -52.931679 -0.1586415 -52.924545 -16.769577 -145.9173
146290000 -16.090748 -145.15741 -0.16615626 -55.370686 -0.16830964 -55.363338 -16.444902 -148.5244
152780000 -15.800801 -147.60913 -0.17673944 -57.769379 -0.18069033 -57.773396 -16.127909 -150.80359
159270000 -15.534829 -149.47391 -0.19649458 -60.198711 -0.19778928 -60.207031 -15.853541 -153.32275
165760000 -15.221276 -151.76202 -0.2079854 -62.534077 -0.20878232 -62.548866 -15.570973 -155.67831
172250000 -15.006363 -154.01852 -0.2128076 -64.953354 -0.21191826 -64.930229 -15.308723 -158.46956
178740000 -14.752495 -156.51213 -0.2200895 -67.357796 -0.21960948 -67.350487 -15.122709 -160.7661
185230000 -14.53777 -158.93137 -0.23326212 -69.746658 -0.23138428 -69.748528 -14.940059 -163.17905
191720000 -14.376354 -161.06993 -0.24233252 -72.176201 -0.2425337 -72.163269 -14.738449 -165.49799
198210000 -14.230183 -163.73639 -0.2485007 -74.556252 -0.25089544 -74.527885 -14.564928 -168.00043
204700000 -14.04077 -166.08128 -0.26279095 -76.958656 -0.26292527 -76.98188 -14.407906 -170.1703
211190000 -13.859918 -168.40823 -0.27210659 -79.369415 -0.27324152 -79.324539 -14.223538 -172.48553
217680000 -13.717109 -170.75461 -0.28747123 -81.725075 -0.2856679 -81.739601 -14.071152 -174.69537
224170000 -13.523843 -173.07765 -0.30081031 -84.070305 -0.30099607 -84.081261 -13.849683 -177.1582
230660000 -13.370054 -175.39586 -0.31140891 -86.439316 -0.3110106 -86.464783 -13.677154 -179.56458
237150000 -13.208239 -177.58786 -0.31739855 -88.747368 -0.31652653 -88.785431 -13.502394 177.61217
243640000 -13.045884 -179.98917 -0.3164086 -91.125877 -0.31996909 -91.138329 -13.388367 174.82652
250130000 -12.921358 177.45074 -0.32030639 -93.502167 -0.32227221 -93.518593 -13.313057 172.66269
256620000 -12.81366 175.05042 -0.3262375 -95.901268 -0.33025414 -95.877968 -13.210811 170.13033
263110000 -12.745966 172.87257 -0.33892816 -98.270424 -0.33778316 -98.292191 -13.096256 167.98143
269600000 -12.657068 170.52243 -0.34171909 -100.60548 -0.34720615 -100.62268 -13.001122 165.44072
276090000 -12.59257 168.37585 -0.35214242 -102.98927 -0.35001847 -103.01768 -12.9566 163.17731
282580000 -12.529749 166.07504 -0.35855502 -105.38946 -0.35845494 -105.38378 -12.865129 160.93309
289070000 -12.488835 163.62515 -0.36300233 -107.75067 -0.36477953 -107.75909 -12.833204 158.63016
295560000 -12.488449 161.01625 -0.36542621 -110.07279 -0.36859605 -110.09365 -12.803364 156.11371
302050000 -12.436502 158.57471 -0.37101147 -112.48244 -0.36735001 -112.45291 -12.782619 153.89235
308540000 -12.415434 156.22635 -0.37976944 -114.85525 -0.37144136 -114.86951 -12.733409 151.62315
315030000 -12.404212 153.72417 -0.37638763 -117.24915 -0.38190818 -117.24632 -12.728499 149.39897
321520000 -12.370283 151.26863 -0.39243636 -119.64001 -0.38891149 -119.64157 -12.698853 147.24239
328010000 -12.340796 149.02122 -0.39827111 -122.00028 -0.39418352 -121.98669 -12.669553 145.10008
334500000 -12.311333 146.55421 -0.40545049 -124.33743 -0.40471804 -124.3553 -12.642756 142.94554
340990000 -12.285216 144.40237 -0.40710613 -126.71228 -0.40812498 -126.7081 -12.624229 140.71156
347480000 -12.251268 141.99863 -0.41421643 -129.06013 -0.41543272 -129.04552 -12.589111 138.42661
353970000 -12.237062 139.8934 -0.42147025 -131.40207 -0.41503015 -131.44574 -12.57226 136.30394
360460000 -12.2587 137.5874 -0.42038494 -133.77737 -0.41979784 -133.78264 -12.5673 133.92751
366950000 -12.255213 135.35014 -0.42261818 -136.09674 -0.42721763 -136.1073 -12.55665 131.62682
373440000 -12.266626 132.85973 -0.42253786 -138.44566 -0.42404112 -138.45822 -12.592544 129.25275
379930000 -12.307392 130.69232 -0.42403492 -140.80429 -0.42578846 -140.84233 -12.592762 126.97832
386420000 -12.370472 128.31017 -0.42029974 -143.1696 -0.4243983 -143.17799 -12.66929 124.56191
392910000 -12.415925 125.75551 -0.42221138 -145.51791 -0.42257577 -145.51656 -12.673008 122.29847
399400000 -12.479712 123.07493 -0.41930145 -147.89273 -0.42120939 -147.92845 -12.738386 119.97807
405890000 -12.515721 120.94123 -0.42197597 -150.2612 -0.41743237 -150.26575 -12.803566 117.68356
412380000 -12.60646 118.26743 -0.41543147 -152.63437 -0.42129207 -152.63963 -12.863885 115.49644
418870000 -12.666897 115.85214 -0.42001373 -155.01837 -0.4149293 -155.03575 -12.912539 113.27431
425360000 -12.724793 113.39108 -0.41644564 -157.39719 -0.41589546 -157.40573 -12.98317 111.11546
431850000 -12.793039 110.64753 -0.41335934 -159.7625 -0.4122777 -159.77509 -13.0335 108.96526
438340000 -12.871836 107.9023 -0.41110492 -162.12862 -0.40721083 -162.16872 -13.089338 106.71062
444830000 -12.950702 105.4959 -0.40415719 -164.53053 -0.40050605 -164.52615 -13.175045 104.27065
451320000 -13.082787 102.99637 -0.39504069 -166.92506 -0.39915675 -166.93106 -13.233746 102.10435
457810000 -13.243261 100.51077 -0.39426777 -169.34282 -0.39279878 -169.36128 -13.345378 99.974617
464300000 -13.35341 98.125931 -0.39252019 -171.75938 -0.38766107 -171.78004 -13.459897 97.70668
470790000 -13.534152 96.117653 -0.38548431 -174.22836 -0.38566738 -174.17841 -13.620832 95.417557
477280000 -13.652143 93.804947 -0.38806215 -176.6301 -0.39155588 -176.61658 -13.769289 93.243355
483770000 -13.767099 91.227005 -0.39349064 -179.01059 -0.39285919 -179.00613 -13.871225 91.394516
490260000 -13.907001 88.7547 -0.39083827 178.61147 -0.38939697 178.6031 -14.036629 89.338036
496750000 -14.06359 85.957359 -0.38097218 176.27225 -0.38462922 176.23607 -14.165274 86.821556
503240000 -14.243274 83.258522 -0.37380329 173.83846 -0.37666073 173.83119 -14.314194 84.760086
509730000 -14.451714 80.613762 -0.37336162 171.37286 -0.37208563 171.40254 -14.455498 82.465569
516220000 -14.577484 78.03595 -0.36888161 168.96881 -0.36734354 168.96669 -14.608127 80.313347
522710000 -14.837432 75.259247 -0.36211473 166.52573 -0.35815427 166.52565 -14.793406 78.154633
529200000 -15.06762 72.986328 -0.35097954 164.10374 -0.35363877 164.10184 -15.012711 75.756805
535690000 -15.262671 70.274864 -0.34795433 161.66205 -0.34929523 161.66232 -15.180906 74.057953
542180000 -15.516297 67.434189 -0.34791234 159.22858 -0.3452909 159.20679 -15.38332 71.829292
548670000 -15.749134 64.855438 -0.34164977 156.78313 -0.34081286 156.7262 -15.554237 70.089615
555160000 -16.046761 62.317856 -0.34174901 154.33209 -0.34106156 154.31796 -15.792667 68.273544
561650000 -16.283804 59.641117 -0.33884457 151.8237 -0.33528599 151.87599 -16.024006 65.98616
568140000 -16.612766 57.193981 -0.33714119 149.44031 -0.3327058 149.40802 -16.296972 64.135399
574630000 -16.936724 54.194752 -0.32883137 146.9715 -0.32799166 146.97102 -16.505508 62.081654
581120000 -17.227764 51.489105 -0.32203856 144.53963 -0.32569179 144.50557 -16.792522 60.375443
587610000 -17.540056 48.397171 -0.32479078 142.06 -0.31929722 142.07912 -17.103046 58.173386
594100000 -17.924488 46.027203 -0.31814706 139.58986 -0.31978306 139.57471 -17.398952 56.264347
600590000 -18.293491 43.078621 -0.31372151 137.12694 -0.31661904 137.11647 -17.722095 54.599548
607080000 -18.638981 40.150387 -0.31457531 134.67155 -0.31299126 134.64696 -18.007639 52.804993
613570000 -19.045305 37.283005 -0.3120876 132.17331 -0.31109178 132.17586 -18.36652 51.071323
620060000 -19.464611 34.99295 -0.31066373 129.70798 -0.30725557 129.73608 -18.65823 49.105213
626550000 -19.870802 32.169514 -0.30933702 127.25124 -0.30724612 127.2379 -19.027538 47.053143
633040000 -20.313643 29.860275 -0.30487534 124.77975 -0.3080723 124.74545 -19.408159 45.658405
639530000 -20.816963 26.330276 -0.30303243 122.27363 -0.30219537 122.27528 -19.77272 44.039131
646020000 -21.296656 23.925699 -0.30467176 119.80312 -0.29904005 119.78854 -20.136414 42.5168
652510000 -21.902697 20.411833 -0.30568001 117.31283 -0.30318189 117.30573 -20.581253 40.663017
659000000 -22.504528 17.077076 -0.30090764 114.83492 -0.30577707 114.8 -21.071112 39.918041
665490000 -23.149111 13.63062 -0.30340573 112.36824 -0.30234167 112.31358 -21.50881 38.395763
671980000 -23.980803 9.8479958 -0.30383927 109.85547 -0.29897186 109.84779 -22.038687 37.700668
678470000 -24.601837 5.2283201 -0.30373013 107.32352 -0.30507758 107.35146 -22.511656 37.58099
684960000 -25.21208 0.94825512 -0.30926329 104.84925 -0.30591261 104.85585 -23.067934 37.073071
691450000 -26.188572 -3.7310443 -0.31084415 102.36516 -0.30549318 102.37047 -23.507231 36.837559
697940000 -27.047823 -8.6414108 -0.30919871 99.873444 -0.308925 99.879341 -24.190104 35.697601
704430000 -27.86812 -14.19224 -0.31411818 97.375214 -0.31283441 97.371429 -24.710615 36.783802
710920000 -28.621292 -18.44475 -0.31773186 94.871117 -0.31932789 94.857239 -25.434507 35.79229
717410000 -29.981131 -25.079556 -0.32216495 92.383537 -0.32087392 92.384468 -26.176708 36.542709
723900000 -30.912928 -31.442278 -0.32378247 89.894341 -0.32447344 89.872986 -26.925514 37.986515
730390000 -32.415005 -39.408817 -0.32750964 87.394119 -0.32495764 87.40078 -27.775246 39.571827
736880000 -34.264954 -49.568317 -0.33056635 84.940475 -0.33250684 84.914536 -28.56637 42.116333
743370000 -35.643719 -62.716656 -0.33502454 82.429916 -0.33510676 82.418404 -29.31566 46.466869
749860000 -37.14682 -85.475006 -0.3365888 79.959404 -0.33263916 79.950996 -30.077766 53.305511
756350000 -37.58836 -111.62419 -0.334162 77.441864 -0.33142576 77.45031 -30.440084 60.618176
762840000 -36.384777 -136.58406 -0.33401617 74.950966 -0.33531991 74.95649 -30.384731 68.475273
769330000 -34.59346 -152.55028 -0.33326244 72.469063 -0.33303407 72.448189 -30.120781 76.664833
775820000 -32.885624 -163.28287 -0.33598077 69.920029 -0.33664066 69.922241 -29.88036 84.015648
782310000 -31.220795 -172.88675 -0.33951014 67.427589 -0.33827105 67.411369 -29.263006 87.289345
788800000 -30.239948 -177.6909 -0.33833688 64.896889 -0.34189391 64.897339 -28.412058 91.173058
795290000 -29.090454 176.21866 -0.34485492 62.383095 -0.34614372 62.362129 -28.052753 94.436897
801780000 -28.396845 171.86131 -0.34841567 59.857182 -0.34668404 59.831741 -27.52986 95.652992
808270000 -27.759365 167.18509 -0.35288373 57.307076 -0.3470377 57.314117 -27.067286 96.596222
814760000 -27.094751 161.75497 -0.3540397 54.764698 -0.35418108 54.797413 -26.68491 98.111862
821250000 -26.616318 158.72871 -0.35517839 52.222317 -0.36027223 52.215923 -26.238211 99.709763
827740000 -26.072983 153.59489 -0.36323959 49.693226 -0.35426536 49.698986 -25.93228 99.59169
834230000 -25.540462 149.2917 -0.36599588 47.1632 -0.36444673 47.168831 -25.510262 100.50526
840720000 -25.015305 145.1972 -0.37010607 44.612122 -0.36820278 44.622051 -25.057076 101.44967
847210000 -24.451717 140.90424 -0.37656274 42.102806 -0.36979678 42.081539 -24.719742 101.4594
853700000 -23.96361 138.22229 -0.37924814 39.545963 -0.37753135 39.529339 -24.254253 102.20206
860190000 -23.512583 134.59843 -0.38007465 37.006237 -0.37878853 36.998848 -23.785278 101.84938
866680000 -23.038977 131.39192 -0.38763079 34.493275 -0.38380185 34.448093 -23.309364 100.86539
873170000 -22.632498 128.14333 -0.38878676 31.913475 -0.38810465 31.919247 -22.907082 100.04786
879660000 -22.25296 126.2931 -0.39479074 29.366047 -0.39780495 29.374714 -22.488596 98.514023
886150000 -21.973093 123.55151 -0.39969784 26.840925 -0.39688727 26.794064 -22.186771 97.037964
892640000 -21.74818 120.64346 -0.40637234 24.288082 -0.40728331 24.282309 -21.757441 95.499489
899130000 -21.551882 118.46449 -0.41021591 21.735954 -0.40741655 21.73624 -21.482264 93.892387
905620000 -21.331533 115.73484 -0.41971806 19.179594 -0.41756028 19.187752 -21.356199 92.353409
912110000 -21.247366 113.20293 -0.42215788 16.644341 -0.42205799 16.653639 -21.043444 90.268509
918600000 -21.039309 110.26433 -0.42763132 14.07419 -0.42883441 14.085433 -20.864475 88.727974
925090000 -20.925882 107.16804 -0.42812228 11.557532 -0.43194339 11.529593 -20.685728 86.964302
931580000 -20.663425 103.55681 -0.43437251 8.9772129 -0.43978578 8.9666615 -20.540638 85.438629
938070000 -20.483418 100.31548 -0.44283178 6.4294419 -0.44226247 6.4296484 -20.317583 83.953316
944560000 -20.314899 97.383339 -0.44463536 3.8247313 -0.44858536 3.8453202 -20.215128 82.865486
951050000 -20.042084 93.577538 -0.45236054 1.3052605 -0.4597806 1.3258755 -19.989567 80.732323
957540000 -19.862974 90.075523 -0.45862693 -1.2405245 -0.45972946 -1.2656339 -19.821241 79.529449
964030000 -19.672728 87.086128 -0.46397632 -3.8344793 -0.46433681 -3.8292179 -19.648027 77.416306
970520000 -19.51099 83.772964 -0.47061461 -6.3780842 -0.47081581 -6.3932929 -19.436462 75.959808
977010000 -19.392788 80.975548 -0.47562397 -8.953311 -0.47396123 -8.9849062 -19.332108 74.5159
983500000 -19.248547 78.0187 -0.48660439 -11.537285 -0.47924429 -11.537535 -19.169565 72.89682
989990000 -19.166639 75.012535 -0.48731247 -14.077085 -0.48590896 -14.104889 -19.060133 71.054428
996480000 -19.06081 72.15464 -0.495906 -16.658415 -0.49125871 -16.695005 -18.93972 69.327278
1002970000 -19.011312 69.186409 -0.49942398 -19.225397 -0.50024235 -19.235445 -18.803497 67.665237
1009460000 -19.030579 66.045044 -0.50050873 -21.825232 -0.50554019 -21.832958 -18.706247 65.94503
1015950000 -19.003834 62.709694 -0.50261617 -24.367109 -0.50383443 -24.391846 -18.63586 64.090302
1022440000 -18.953075 59.713734 -0.50763279 -26.979473 -0.50552577 -26.97578 -18.532204 62.194576
1028930000 -18.988501 56.643913 -0.51248395 -29.559687 -0.50666904 -29.57947 -18.512367 60.320953
1035420000 -18.981768 53.711292 -0.51362079 -32.168488 -0.51008999 -32.18689 -18.425497 58.192051
1041910000 -18.94128 50.448456 -0.52069551 -34.790615 -0.51535785 -34.802032 -18.390524 56.217216
1048400000 -18.947638 47.396477 -0.51918077 -37.374573 -0.52028233 -37.404079 -18.387152 53.96476
1054890000 -18.893888 44.299107 -0.51905417 -39.972858 -0.52436352 -40.001751 -18.346693 51.756557
1061380000 -18.921736 41.726337 -0.52150476 -42.620888 -0.52534014 -42.635551 -18.357479 49.808258
1067870000 -18.926435 38.691795 -0.52203333 -45.235771 -0.52627605 -45.267464 -18.329103 47.718655
1074360000 -18.99222 35.780331 -0.53052914 -47.901283 -0.5274446 -47.879345 -18.35388 45.872581
1080850000 -19.024059 32.930202 -0.53142351 -50.520542 -0.52979642 -50.518272 -18.378311 43.931973
1087340000 -19.070023 29.765472 -0.53331566 -53.164944 -0.53283954 -53.176884 -18.406015 42.154148
1093830000 -19.219561 26.952291 -0.53644484 -55.807209 -0.54042709 -55.805908 -18.380638 39.665684
1100320000 -19.220421 23.950666 -0.54433239 -58.427475 -0.54562157 -58.469864 -18.473787 38.094864
1106810000 -19.322353 20.612722 -0.55045545 -61.081978 -0.55031198 -61.091072 -18.491684 36.045544
1113300000 -19.420738 17.852463 -0.55691206 -63.716576 -0.55467737 -63.72113 -18.608044 34.033207
1119790000 -19.454395 13.99432 -0.55925375 -66.364914 -0.55923545 -66.367241 -18.583164 32.300766
1126280000 -19.517498 10.457103 -0.56287003 -68.994072 -0.56200099 -69.01075 -18.697449 30.734861
1132770000 -19.638378 7.2038202 -0.56573319 -71.666519 -0.56869161 -71.64518 -18.697399 28.937235
1139260000 -19.777739 3.8111544 -0.56568307 -74.30497 -0.56138897 -74.306435 -18.798166 27.077055
1145750000 -19.933102 0.65822864 -0.563649 -76.957298 -0.5614273 -76.924561 -18.904423 24.823669
1152240000 -20.073475 -2.3456001 -0.56582952 -79.592773 -0.5643056 -79.611786 -18.964247 22.641628
1158730000 -20.192862 -4.9398026 -0.56271744 -82.33358 -0.56608415 -82.347725 -19.04421 20.992352
1165220000 -20.380854 -8.1661119 -0.56453258 -85.025734 -0.56302518 -85.025925 -19.12458 19.386065
1171710000 -20.670835 -10.868671 -0.56051511 -87.706604 -0.56644458 -87.729858 -19.223974 17.645376
1178200000 -20.83741 -13.44199 -0.56300718 -90.405823 -0.56066114 -90.481377 -19.347687 15.592202
1184690000 -21.135172 -16.400965 -0.56426686 -93.14727 -0.55847448 -93.191673 -19.505619 13.911747
1191180000 -21.353199 -19.433737 -0.56596494 -95.908363 -0.56589943 -95.920067 -19.632927 11.913367
1197670000 -21.69022 -22.879904 -0.56482387 -98.638367 -0.56417173 -98.661385 -19.744347 10.202369
1204160000 -21.919071 -25.914986 -0.57674336 -101.38832 -0.56690645 -101.39455 -19.887119 8.0441713
1210650000 -22.236345 -29.888226 -0.57482231 -104.11581 -0.56804311 -104.10541 -20.095095 6.4938507
1217140000 -22.420866 -33.447628 -0.57207537 -106.91599 -0.57519519 -106.88721 -20.281986 5.077342
1223630000 -22.774933 -36.306751 -0.57979673 -109.65331 -0.57768863 -109.66582 -20.440544 2.6482639
1230120000 -22.991693 -40.249081 -0.57858962 -112.40202 -0.57716012 -112.39426 -20.723133 1.3706636
1236610000 -23.264406 -43.924294 -0.58360136 -115.18984 -0.58142239 -115.20102 -20.926611 -0.68066764
1243100000 -23.711811 -47.081593 -0.58838922 -117.96894 -0.58636522 -117.95578 -21.262449 -2.6296661
1249590000 -23.981926 -50.205078 -0.59002697 -120.76464 -0.586308 -120.7598 -21.538105 -4.6886964
1256080000 -24.434431 -52.666386 -0.59450489 -123.57127 -0.59246773 -123.60199 -21.894157 -6.3683448
1262570000 -24.979244 -54.706421 -0.59427649 -126.39063 -0.59271395 -126.39684 -22.380194 -8.1625147
1269060000 -25.705622 -57.94548 -0.59548354 -129.22095 -0.59313869 -129.26701 -22.678188 -8.9562807
1275550000 -26.207365 -60.224804 -0.60218871 -132.08855 -0.60062796 -132.07443 -23.278587 -9.8582211
1282040000 -27.248709 -62.800816 -0.60149801 -134.92775 -0.60404825 -134.9348 -23.745533 -10.940548
1288530000 -28.095423 -67.55883 -0.61008132 -137.77055 -0.61146271 -137.75955 -24.325348 -10.717623
1295020000 -29.277903 -70.780724 -0.61042863 -140.60689 -0.61331546 -140.63254 -24.753935 -11.011703
1301510000 -30.380783 -73.928635 -0.61847931 -143.50256 -0.60974306 -143.49603 -25.470337 -10.100904
1308000000 -31.360798 -81.315765 -0.61889863 -146.39658 -0.62058836 -146.39914 -26.066645 -9.6383162
1314490000 -32.461647 -86.385002 -0.62552166 -149.2702 -0.62810093 -149.29337 -26.742296 -8.3567028
