!Keysight Technologies,P9371A,MY57211172,A.13.10.05
!Date: Monday, March 30, 2026 15:30:50
!Correction: S11(Full 2 Port(1,2)) 
!S21(Full 2 Port(1,2)) 
!S12(Full 2 Port(1,2)) 
!S22(Full 2 Port(1,2)) 
!S2P File: Measurements: S11, S21, S12, S22:
# Hz S  dB   R 50
10000000 0.0056578624 -0.71740794 -77.756393 -88.492821 -81.65934 46.381134 0.0015593971 -0.49740362
16490000 0.11644933 -0.27931222 -78.032082 -116.06114 -89.067856 84.885147 0.091100723 -0.091206692
22980000 0.007657134 -2.1362834 -87.00695 96.481201 -78.715408 6.9407687 0.0073996126 -1.8982592
29470000 0.00054542784 -2.7947245 -79.249672 148.88078 -87.701172 108.09541 0.00020142045 -2.5264399
35960000 0.001579177 -3.351779 -87.430641 -49.27142 -76.080818 -32.792282 0.001090631 -3.0898211
42450000 0.0034456509 -3.9468975 -91.740532 -177.57954 -80.855766 111.82018 -0.0039361832 -3.6486325
48940000 -0.0015156958 -4.502789 -79.486732 176.38519 -80.819221 126.87743 0.00079144596 -4.2107611
55430000 0.00056414335 -5.0302424 -97.014046 -101.88943 -79.324753 10.563355 -0.002261275 -4.7471323
61920000 -0.0011012851 -5.6121731 -89.692162 -53.862865 -83.468201 -163.43964 -0.0031920185 -5.3277512
68410000 -0.0011827815 -6.1750088 -74.330727 22.579466 -73.244125 53.901524 -0.0032750526 -5.9110169
74900000 0.0016092638 -6.7183523 -78.424362 173.80692 -84.562637 2.7898569 -0.004919969 -6.4427061
81390000 -0.00022784267 -7.2783527 -85.659981 169.2406 -76.68898 26.176413 -0.0039398279 -7.0517774
87880000 -0.00075799116 -7.7880378 -83.460365 -57.864475 -77.503433 -43.693817 -0.0060061878 -7.5874286
94370000 0.0011706522 -8.3393517 -77.175514 50.819286 -92.280716 124.224 -0.005951446 -8.144743
100860000 -0.00012479897 -8.8542089 -75.837112 115.22323 -87.325966 130.8186 -0.0042824456 -8.720664
107350000 -0.0041698753 -9.4211264 -81.869415 -151.68506 -79.741943 99.166626 -0.0050427453 -9.2602482
113840000 -0.00090382545 -9.9643803 -81.752029 -122.45379 -77.249184 44.907074 -0.0053267507 -9.8266163
120330000 -0.0040181461 -10.526936 -100.71629 -32.765652 -85.761818 102.55068 -0.010264479 -10.386011
126820000 -0.0053941249 -11.081118 -73.963432 149.61954 -88.912682 154.32083 -0.0090370178 -10.938943
133310000 -0.0041531455 -11.67141 -86.067711 -74.848038 -87.143509 110.83639 -0.0078498162 -11.505832
139800000 -0.0056083747 -12.21577 -75.850594 167.87059 -75.745583 170.28882 -0.0083509563 -12.056696
146290000 -0.0043203882 -12.823647 -78.881859 -9.4798508 -72.65979 50.219933 -0.007993971 -12.639839
152780000 -0.0074550216 -13.408247 -81.572685 52.20747 -79.727318 103.75307 -0.007162543 -13.207958
159270000 -0.0049070762 -14.024879 -75.377892 106.905 -79.235939 95.52005 -0.0098174578 -13.781663
165760000 -0.0069188951 -14.584268 -76.350822 103.64408 -80.797585 63.105881 -0.012025767 -14.368502
172250000 -0.0028965927 -15.16188 -89.012886 -73.998528 -83.356682 26.247587 -0.012218027 -14.905985
178740000 -0.0021807405 -15.737912 -84.769409 -132.82567 -82.67115 143.20033 -0.0088836271 -15.476068
185230000 -0.0018978367 -16.281488 -72.606819 56.031219 -84.686485 141.98399 -0.009220304 -16.057384
191720000 -0.0016052775 -16.832964 -81.544449 92.42627 -79.120842 17.076288 -0.0069664828 -16.571585
198210000 0.00089677726 -17.377951 -74.787704 79.10218 -86.40995 111.92086 -0.013584835 -17.149284
204700000 -0.00055947574 -17.901695 -80.726746 40.74786 -79.485367 86.332619 -0.010625346 -17.703413
211190000 0.0011383088 -18.429878 -85.140671 -9.6889391 -83.766693 0.3971996 -0.0087949978 -18.258656
217680000 0.001670624 -18.96558 -77.584229 10.598017 -76.796181 33.399044 -0.013198776 -18.828119
224170000 -0.00092471362 -19.51738 -80.179909 -51.263615 -77.860344 -22.196785 -0.014953654 -19.388895
230660000 -0.0065545929 -20.05875 -73.363541 -50.227451 -66.991127 -16.267467 -0.020639282 -19.939148
237150000 -0.0025038561 -20.604034 -69.15654 -134.66226 -73.964432 -103.40028 -0.028962232 -20.437738
243640000 -0.0074583269 -21.180174 -71.257759 166.11969 -70.663734 160.17645 -0.012264901 -20.940928
250130000 -0.0052891197 -21.750217 -70.963623 147.43581 -71.246605 128.35863 -0.003280225 -21.578962
256620000 -0.0021797677 -22.353003 -76.662415 95.315224 -72.175728 79.823387 -0.004238619 -22.191603
263110000 -0.0046506501 -22.927485 -87.153435 51.560894 -82.098679 130.59355 -0.0088462681 -22.760159
269600000 -0.0048167272 -23.538208 -76.166237 107.35555 -71.094406 81.185249 -0.0057356786 -23.337282
276090000 -0.0061485064 -24.121603 -78.120255 52.275658 -74.289696 60.553276 -0.011061382 -23.88373
282580000 -0.0019580983 -24.720446 -75.053902 131.80756 -71.727119 94.765709 -0.0080623925 -24.435036
289070000 0.00070104626 -25.311022 -79.29406 106.47874 -92.314423 24.491524 -0.0086211404 -25.009495
295560000 -0.0013449953 -25.865059 -78.476547 47.131535 -73.6017 37.96743 -0.010053673 -25.567295
302050000 -0.0019070306 -26.451431 -81.134705 138.92332 -74.107277 128.32867 -0.010760225 -26.152769
308540000 -0.0021617291 -27.010984 -76.806595 49.67178 -78.519722 35.844776 -0.0084091099 -26.687048
315030000 0.00034009528 -27.55555 -73.162857 125.28682 -76.285507 114.35786 -0.0097605484 -27.23316
321520000 -0.00021960278 -28.086994 -71.578568 58.110718 -78.225235 29.904594 -0.012813041 -27.802748
328010000 0.00066286232 -28.637438 -78.74575 90.098785 -78.457245 79.824348 -0.012553053 -28.327576
334500000 -0.0016747938 -29.180914 -80.240227 8.9112015 -77.992378 51.030838 -0.014325395 -28.908855
340990000 -0.0027037608 -29.736212 -78.146309 106.30743 -82.858467 136.62863 -0.012643786 -29.462807
347480000 -0.005228248 -30.283703 -77.633743 144.77213 -76.656548 -92.867653 -0.013623784 -30.058157
353970000 -0.0046009952 -30.819193 -96.687004 94.033661 -74.187447 -42.319752 -0.01547239 -30.597916
360460000 -0.0088284072 -31.352695 -75.442566 -16.124708 -89.232445 -63.157074 -0.019353762 -31.152069
366950000 -0.0056829732 -31.923929 -67.262924 -119.36455 -74.604668 -90.08416 -0.014503156 -31.731867
373440000 -0.0041133459 -32.506088 -72.364319 -153.30841 -69.833488 179.89763 -0.012724882 -32.30471
379930000 -0.003813246 -33.090115 -68.1241 169.50632 -70.821114 -163.68159 -0.015967403 -32.870636
386420000 -0.0032033627 -33.649055 -67.993332 148.47002 -66.139511 133.48322 -0.02211489 -33.464451
392910000 0.0023980623 -34.210144 -64.7761 125.86304 -67.767929 131.60762 -0.021136532 -34.00185
399400000 -0.0011170034 -34.790489 -66.66832 96.234291 -67.591194 97.744759 -0.022656936 -34.577671
405890000 0.0068908981 -35.382851 -67.165161 83.12809 -68.493919 76.675644 -0.021551955 -35.141659
412380000 0.00072599045 -35.932999 -70.726349 68.179649 -71.879776 87.798317 -0.018347463 -35.661068
418870000 0.0051386156 -36.482853 -70.806808 67.50515 -73.49514 42.405128 -0.019191016 -36.238159
425360000 0.0058060517 -37.038185 -70.870422 41.737823 -73.516273 30.180159 -0.014472298 -36.781952
431850000 0.0051366314 -37.598682 -69.859024 51.489136 -72.923988 34.127056 -0.017851193 -37.357933
438340000 0.0028730575 -38.172039 -75.341972 34.972469 -71.496529 20.198065 -0.016246883 -37.913231
444830000 0.0039098347 -38.737934 -80.043343 62.462551 -75.169327 47.309155 -0.016302619 -38.499706
451320000 0.0042244685 -39.304756 -80.46405 83.293144 -73.475807 2.4653945 -0.01645091 -39.029339
457810000 0.0016435297 -39.845142 -85.673126 -88.97039 -71.100517 32.473103 -0.017260781 -39.626961
464300000 0.0035772431 -40.446815 -77.041069 66.913864 -75.492188 76.284286 -0.019148482 -40.173679
470790000 0.0027777413 -41.025547 -72.440887 -2.3901653 -70.676559 37.322773 -0.020834414 -40.769661
477280000 -0.0013941129 -41.596039 -68.882919 5.3593273 -67.503403 36.683662 -0.019741874 -41.350933
483770000 0.0041908836 -42.160057 -66.720596 -2.5035968 -66.773491 -17.714695 -0.02237289 -41.894215
490260000 0.0020604492 -42.732006 -72.966461 -67.156578 -67.338974 -95.127045 -0.022459477 -42.445709
496750000 0.0055129165 -43.293526 -68.004585 -142.11143 -68.434555 -111.08879 -0.018948011 -43.027447
503240000 0.005969495 -43.887642 -68.37394 -159.50017 -77.787796 165.74498 -0.016118439 -43.60722
509730000 0.010711551 -44.45306 -72.473473 160.03555 -69.047813 133.6317 -0.022372998 -44.197117
516220000 0.012898034 -45.006027 -71.790947 133.29053 -75.245865 120.38769 -0.019023297 -44.724434
522710000 0.014926331 -45.585167 -72.351929 137.60396 -73.799736 70.481079 -0.018098857 -45.301884
529200000 0.016175758 -46.147678 -71.472672 112.46413 -80.264656 117.58213 -0.024391301 -45.864967
535690000 0.015832227 -46.737247 -72.259796 54.63966 -71.664688 70.360687 -0.021313446 -46.414806
542180000 0.01663862 -47.343224 -72.832771 67.29245 -71.803703 46.571259 -0.019412657 -46.995922
548670000 0.014483576 -47.888786 -75.31546 37.553658 -68.858002 41.634949 -0.022715792 -47.537251
555160000 0.0094822403 -48.44445 -72.591431 38.563442 -69.959015 50.23325 -0.02347208 -48.109837
561650000 0.011825851 -49.010902 -72.540573 42.784657 -79.215652 26.485214 -0.024667457 -48.662426
568140000 0.0095223226 -49.550896 -75.744331 45.986023 -71.839897 46.692364 -0.023673153 -49.220234
574630000 0.010388101 -50.106304 -73.221344 54.601601 -70.290733 58.350349 -0.02277901 -49.827175
581120000 0.012013656 -50.642239 -74.167969 20.457773 -74.289322 33.089806 -0.018007997 -50.372265
587610000 0.015418369 -51.199749 -72.064293 61.370792 -78.953011 63.64473 -0.018952046 -50.943584
594100000 0.011574494 -51.739971 -70.861572 25.217003 -72.409386 40.973248 -0.024993915 -51.55579
600590000 0.011731599 -52.311256 -77.388268 10.512593 -71.540627 21.585094 -0.025090979 -52.113945
607080000 0.0097969538 -52.865459 -79.593765 4.4035811 -69.443626 42.861065 -0.022162486 -52.705067
613570000 0.01152234 -53.41925 -77.285652 45.575504 -72.192543 25.334398 -0.024331622 -53.266869
620060000 0.013810661 -53.964108 -71.899338 50.417694 -71.413826 33.654167 -0.027523052 -53.847527
626550000 0.01376495 -54.512836 -68.859726 16.163292 -71.827133 53.356789 -0.027091889 -54.393497
633040000 0.011218307 -55.075478 -72.050056 33.798416 -74.18512 50.665344 -0.027008263 -54.994751
639530000 0.013105712 -55.662685 -70.283401 55.324223 -69.440872 42.922173 -0.023710078 -55.566826
646020000 0.01607169 -56.240746 -79.885033 14.058244 -71.153 47.570316 -0.023203054 -56.113869
652510000 0.017852411 -56.789459 -68.189384 33.079445 -71.024292 17.603024 -0.023254516 -56.673687
659000000 0.015731348 -57.390884 -75.218956 33.132442 -67.461075 28.770727 -0.024476619 -57.232002
665490000 0.02101309 -57.922623 -71.532753 7.3455081 -71.589729 44.11972 -0.022435522 -57.790443
671980000 0.020290578 -58.512444 -70.245308 26.311098 -69.12339 3.6347978 -0.026917623 -58.366543
678470000 0.020455001 -59.085876 -69.267319 20.630545 -68.053581 18.662182 -0.025224226 -58.935429
684960000 0.017929234 -59.63829 -68.479401 -1.5806637 -68.090752 15.127433 -0.028905196 -59.454674
691450000 0.01644541 -60.181541 -69.265205 32.041477 -71.425186 45.376221 -0.030687973 -60.041462
697940000 0.018891659 -60.718224 -69.029091 36.268421 -70.745628 9.2634745 -0.030709002 -60.605473
704430000 0.016230736 -61.275356 -69.65921 23.548548 -71.04203 19.02207 -0.030520435 -61.162788
710920000 0.018494997 -61.76387 -69.550789 -1.7384745 -74.277161 37.89146 -0.034993183 -61.735268
717410000 0.015796337 -62.300163 -77.241058 39.594204 -70.594704 10.718115 -0.033587731 -62.321823
723900000 0.015622134 -62.82798 -69.801514 39.059254 -68.823364 17.216446 -0.033693321 -62.895649
730390000 0.016452987 -63.348331 -73.904526 -7.6963701 -75.094109 40.274632 -0.035516482 -63.45034
736880000 0.018079232 -63.898777 -73.820625 2.0226712 -67.642349 20.211515 -0.036703259 -64.025513
743370000 0.014033198 -64.46524 -70.992332 42.127842 -68.214279 14.989738 -0.037780646 -64.583298
749860000 0.015124425 -65.017586 -71.969742 23.173557 -68.753632 30.209545 -0.034978192 -65.140366
756350000 0.019200213 -65.602554 -69.751297 42.361134 -69.31353 32.702465 -0.036629491 -65.72451
762840000 0.012835178 -66.204849 -69.999725 25.570185 -68.554771 28.332966 -0.031825643 -66.265991
769330000 0.018142466 -66.798004 -65.569763 41.107933 -72.981812 0.62801987 -0.035740681 -66.829987
775820000 0.017195746 -67.388985 -73.009636 28.588234 -66.89093 10.30193 -0.036224037 -67.395958
782310000 0.017403381 -67.993408 -73.580597 49.538193 -69.710854 45.782898 -0.037566688 -67.976418
788800000 0.017507859 -68.58506 -72.168228 64.690384 -70.637787 49.660267 -0.04091537 -68.53231
795290000 0.01898683 -69.139908 -73.718765 43.66515 -70.045654 40.192581 -0.041666519 -69.111298
801780000 0.018422304 -69.691956 -71.640266 55.568424 -71.698219 63.141911 -0.042465888 -69.664375
808270000 0.017648885 -70.243843 -73.283447 24.268629 -65.756302 37.705791 -0.045390807 -70.243896
814760000 0.019236341 -70.779541 -66.15892 26.938206 -71.596504 52.634556 -0.049205471 -70.855042
821250000 0.017679602 -71.33181 -77.42408 58.430706 -72.129303 58.461319 -0.051406931 -71.374084
827740000 0.017440969 -71.84343 -72.356255 63.645077 -72.214577 32.492432 -0.047974922 -71.99054
834230000 0.017894046 -72.361671 -68.381783 39.317993 -69.920906 44.82584 -0.051801171 -72.5438
840720000 0.019212732 -72.912674 -68.200523 34.305573 -65.771164 19.377062 -0.050085738 -73.104553
847210000 0.018341349 -73.456688 -67.042152 9.5324697 -70.584221 34.774971 -0.048614603 -73.68219
853700000 0.019190356 -74.00386 -69.881248 17.814234 -68.79406 36.507713 -0.048351079 -74.251984
860190000 0.019167824 -74.584221 -69.777878 27.644251 -67.327942 26.187426 -0.050199304 -74.812157
866680000 0.019830173 -75.171112 -68.962524 41.744797 -71.436569 27.511848 -0.047550645 -75.386749
873170000 0.018101308 -75.757553 -67.397545 15.679806 -66.426659 5.368866 -0.048283141 -75.950569
879660000 0.021620587 -76.366547 -68.555504 12.757891 -66.796196 -8.0083714 -0.049732655 -76.509354
886150000 0.018546661 -76.98262 -67.078217 22.339632 -69.522209 32.400646 -0.052462377 -77.082283
892640000 0.022769483 -77.556541 -66.449425 15.981518 -69.568199 20.180935 -0.049464267 -77.681465
899130000 0.022586519 -78.166435 -72.435097 28.991825 -72.782387 7.9685788 -0.055599015 -78.226318
905620000 0.023488943 -78.715607 -68.903656 22.722712 -69.249229 1.8242718 -0.052050762 -78.779846
912110000 0.028680325 -79.266205 -70.432167 17.779972 -80.60157 37.462406 -0.054536019 -79.33345
918600000 0.023613673 -79.823448 -69.563377 19.298347 -73.398216 -27.27067 -0.051767848 -79.909966
925090000 0.027260799 -80.358078 -72.283188 26.211519 -71.865379 28.545845 -0.055667732 -80.492355
931580000 0.0266125 -80.85939 -72.843979 18.049976 -70.935303 10.960876 -0.056908749 -81.078995
938070000 0.031627048 -81.399185 -68.354141 59.292606 -65.558815 64.475693 -0.057215761 -81.625389
944560000 0.031150958 -81.904976 -63.890575 40.796917 -66.941444 30.019361 -0.054252688 -82.219902
951050000 0.031040998 -82.46402 -66.706635 34.586857 -66.481476 16.298368 -0.054178316 -82.795097
957540000 0.030821908 -82.995331 -65.672318 4.5454745 -68.422516 20.138418 -0.054734353 -83.37085
964030000 0.0266867 -83.553009 -67.42527 12.807445 -69.634537 8.1200771 -0.055941124 -83.963226
970520000 0.029182795 -84.124496 -63.99884 -2.4045095 -66.772987 3.5368407 -0.057080757 -84.547646
977010000 0.028761821 -84.6903 -65.418823 -1.2419893 -66.57795 18.913383 -0.061735339 -85.129181
983500000 0.025613824 -85.294914 -69.861221 -7.145462 -64.697144 17.710148 -0.067075655 -85.741989
989990000 0.028907774 -85.863785 -66.097763 2.7589779 -70.218529 10.552004 -0.070379943 -86.289978
996480000 0.029018074 -86.451286 -63.720551 6.7604375 -68.192276 18.742767 -0.07643877 -86.888359
1002970000 0.030063232 -87.038559 -64.196152 7.6441216 -68.800583 5.1746678 -0.079569638 -87.462776
1009460000 0.031200215 -87.603935 -67.4972 5.6261439 -70.541939 -5.7965245 -0.078541212 -88.057457
1015950000 0.035463236 -88.127342 -68.160324 13.809515 -68.097679 34.948853 -0.083492845 -88.610352
1022440000 0.03782405 -88.704941 -66.818169 13.641421 -70.108902 -12.021436 -0.08214283 -89.214439
1028930000 0.040423423 -89.263702 -63.694672 13.254583 -69.886597 23.504147 -0.086089194 -89.741623
1035420000 0.043997426 -89.783165 -67.740463 10.798446 -68.576614 14.151564 -0.088538066 -90.339828
1041910000 0.046859615 -90.33493 -67.165123 13.641177 -64.320786 4.5044551 -0.086331822 -90.886414
1048400000 0.046559829 -90.91185 -65.240318 -5.8152966 -67.912842 0.30608046 -0.084525988 -91.479355
1054890000 0.047504351 -91.450348 -67.053757 -5.7167377 -66.668961 7.3531966 -0.082653351 -92.068359
1061380000 0.04288042 -92.032608 -66.059746 9.4031563 -66.935982 2.7561882 -0.084195882 -92.668938
1067870000 0.037763845 -92.58416 -68.995804 -22.008362 -66.590561 7.517488 -0.087266602 -93.269943
1074360000 0.03892117 -93.191689 -68.26915 -5.3908968 -64.455444 7.733552 -0.090295911 -93.85463
1080850000 0.035907626 -93.753372 -67.949799 0.72650695 -68.859787 1.3533529 -0.098265402 -94.435776
1087340000 0.030963801 -94.341125 -66.163017 -16.341936 -67.56662 -14.578876 -0.09433084 -95.01564
1093830000 0.038644504 -94.897171 -66.577728 -12.243531 -66.239174 -6.9040661 -0.10569307 -95.60582
1100320000 0.03527068 -95.476036 -65.094353 -13.388903 -64.090225 -10.426225 -0.10406682 -96.138779
1106810000 0.039300475 -96.048576 -65.271194 7.1446896 -67.687881 -13.994361 -0.10342614 -96.684372
1113300000 0.038901098 -96.590065 -66.943169 20.212929 -66.72052 -19.367476 -0.10463205 -97.192619
1119790000 0.041739717 -97.129173 -69.001648 -6.057343 -68.017128 -16.859703 -0.10149609 -97.804665
1126280000 0.04583307 -97.700554 -66.325493 9.5332823 -65.482628 -17.231817 -0.097029582 -98.338326
1132770000 0.047798317 -98.203369 -63.465065 -12.350086 -64.022095 -18.710419 -0.10047379 -98.920128
1139260000 0.048710302 -98.737518 -68.002289 -24.603931 -64.912529 -8.64956 -0.096001476 -99.507217
1145750000 0.051771477 -99.276039 -64.962601 -4.8210611 -64.353546 -8.7278805 -0.092743479 -100.0767
1152240000 0.053335935 -99.780449 -63.676579 -5.9480629 -64.783081 -11.472341 -0.096378081 -100.66502
1158730000 0.050706837 -100.32957 -66.58448 -15.154915 -64.119614 -11.879506 -0.10109038 -101.21542
1165220000 0.046910804 -100.86444 -66.206123 -16.406401 -64.807838 -20.128845 -0.10359757 -101.80328
1171710000 0.04161042 -101.43272 -65.927238 -21.049593 -65.021912 -12.788394 -0.10524356 -102.39813
1178200000 0.042157557 -102.00396 -69.15377 -22.764103 -67.774406 -32.234146 -0.11081708 -102.96535
1184690000 0.038761843 -102.57339 -65.526749 -10.242964 -64.97464 -20.301739 -0.11144643 -103.53797
1191180000 0.036743529 -103.15453 -63.181705 -2.7739336 -65.433128 -11.215141 -0.1191954 -104.12697
1197670000 0.036941499 -103.73922 -65.353592 -17.306551 -66.951088 -9.9942493 -0.11896219 -104.71474
1204160000 0.043177608 -104.29824 -68.065384 -18.705574 -65.977669 -10.948773 -0.11580308 -105.29539
1210650000 0.04030088 -104.85418 -63.08659 -9.9826565 -64.048065 -20.993706 -0.11394197 -105.84113
1217140000 0.047214139 -105.45264 -67.055771 -7.2754936 -64.458534 1.1877854 -0.11453044 -106.41029
1223630000 0.048279248 -105.97425 -64.2808 10.789135 -66.992622 -16.210291 -0.11988852 -106.96187
1230120000 0.053804025 -106.52597 -65.226021 -9.402894 -64.255913 -15.919636 -0.11644595 -107.52762
1236610000 0.060217205 -107.05946 -63.900398 -25.381071 -63.885334 -9.5756121 -0.11598234 -108.09938
1243100000 0.066708796 -107.6071 -64.342262 -18.790468 -64.224342 -22.001762 -0.11212247 -108.66801
1249590000 0.068106875 -108.13594 -65.835419 -20.025194 -64.987381 -24.317505 -0.11293553 -109.2185
1256080000 0.06993331 -108.70022 -64.129265 -21.998734 -63.89682 -15.55882 -0.12595025 -109.8342
1262570000 0.074531376 -109.24483 -63.040138 -20.615658 -66.585991 -23.457052 -0.12394933 -110.42011
1269060000 0.069462702 -109.86187 -63.949272 -33.289871 -64.36731 -21.291805 -0.12951858 -111.0039
1275550000 0.065320343 -110.44738 -64.326782 -8.6488514 -63.814541 -28.330791 -0.13384055 -111.57022
1282040000 0.059591476 -111.03754 -62.548183 -23.053003 -64.637383 -29.39262 -0.13688393 -112.19556
1288530000 0.056303661 -111.61301 -65.38031 -17.353662 -65.853523 -35.391785 -0.13391398 -112.77345
