!Keysight Technologies,P9371A,MY57211172,A.13.10.05
!Date: Monday, March 30, 2026 15:48:59
!Correction: S11(Full 2 Port(1,2)) 
!S21(Full 2 Port(1,2)) 
!S12(Full 2 Port(1,2)) 
!S22(Full 2 Port(1,2)) 
!S2P File: Measurements: S11, S21, S12, S22:
# Hz S  dB   R 50
10000000 -9.5510607 178.86949 -3.5200355 -3.611824 -3.5239999 -3.6133089 -9.6145506 179.14055
16490000 -9.6551132 177.89558 -3.5547283 -6.1700072 -3.5624781 -6.1792536 -9.7394438 178.11821
22980000 -9.5444307 178.74211 -3.5361221 -7.9115057 -3.541621 -7.8687263 -9.5897512 179.08313
29470000 -9.5041685 178.62038 -3.5366187 -10.004252 -3.5471141 -9.9677038 -9.5535917 178.9281
35960000 -9.4782171 178.43851 -3.5509613 -12.160097 -3.5612504 -12.168077 -9.5131607 178.7415
42450000 -9.4265738 178.18538 -3.5519102 -14.330589 -3.5810349 -14.326283 -9.4690361 178.4713
48940000 -9.3792038 177.98891 -3.5591862 -16.487839 -3.5971246 -16.488901 -9.4106731 178.17473
55430000 -9.3209362 177.6624 -3.5653949 -18.65239 -3.6076024 -18.635057 -9.3417263 177.87263
61920000 -9.2543936 177.27757 -3.5726173 -20.811918 -3.6283846 -20.82819 -9.287529 177.46066
68410000 -9.1927567 176.92038 -3.5812354 -22.969606 -3.6533346 -23.012085 -9.211174 176.99068
74900000 -9.1102133 176.2655 -3.5859554 -25.155621 -3.6731963 -25.226027 -9.1512671 176.5031
81390000 -9.0353775 175.75894 -3.5951481 -27.314451 -3.6987009 -27.384666 -9.0627384 175.91914
87880000 -8.9686747 174.98019 -3.601229 -29.536013 -3.7286401 -29.637632 -8.9906225 175.26421
94370000 -8.8817415 174.18059 -3.6075397 -31.766121 -3.7556357 -31.910234 -8.9168596 174.42314
100860000 -8.8148193 173.40927 -3.6202476 -33.954411 -3.7864606 -34.153107 -8.8407526 173.62254
107350000 -8.7410555 172.44495 -3.626143 -36.222534 -3.8295088 -36.413582 -8.76373 172.68204
113840000 -8.6658258 171.49287 -3.6391869 -38.4636 -3.8657308 -38.718647 -8.690402 171.69818
120330000 -8.6064825 170.33144 -3.6426473 -40.759579 -3.9141264 -41.050282 -8.6260757 170.64233
126820000 -8.5557404 169.19078 -3.6573737 -43.068409 -3.9615114 -43.342258 -8.5721769 169.49275
133310000 -8.529129 168.00418 -3.6708262 -45.385086 -4.0274043 -45.697735 -8.5201607 168.30579
139800000 -8.524292 166.79907 -3.6885524 -47.746506 -4.0977287 -48.087723 -8.4996204 167.03462
146290000 -8.538599 165.51776 -3.7003043 -50.131367 -4.1775031 -50.494953 -8.4838066 165.70239
152780000 -8.5964785 164.21851 -3.722425 -52.553661 -4.2766232 -52.865501 -8.5116587 164.35779
159270000 -8.7034473 163.01576 -3.7532458 -55.037319 -4.3971314 -55.290447 -8.5643549 162.91449
165760000 -8.8633871 161.90022 -3.7974553 -57.576801 -4.5459375 -57.679554 -8.6815357 161.52138
172250000 -9.0711384 161.27046 -3.8503466 -60.183746 -4.7175264 -59.831078 -8.8320389 160.31526
178740000 -9.2888422 161.2224 -3.9259989 -62.806057 -4.9243045 -61.786301 -9.0650034 159.4579
185230000 -9.472002 161.97905 -4.0366077 -65.399147 -5.1260848 -63.215527 -9.3222675 159.35341
191720000 -9.5506964 163.13217 -4.1773114 -67.912491 -5.2627373 -64.330612 -9.5111332 160.14954
198210000 -9.4876337 164.21558 -4.3288159 -70.120392 -5.3131828 -65.458427 -9.5722141 161.2731
204700000 -9.3282709 164.95316 -4.4916339 -72.018875 -5.3349619 -67.062111 -9.5162792 162.27393
211190000 -9.1479025 165.10579 -4.6190844 -73.775871 -5.3628798 -68.921913 -9.3952188 162.7942
217680000 -8.9749651 164.92871 -4.7193055 -75.386131 -5.4239669 -70.939217 -9.2530546 162.97141
224170000 -8.7894716 164.62212 -4.799458 -76.981033 -5.5073347 -72.907967 -9.0921736 162.89828
230660000 -8.6237059 164.06839 -4.852663 -78.670494 -5.6069593 -74.896523 -8.9310465 162.54192
237150000 -8.4820576 163.33989 -4.8768044 -80.486336 -5.7129197 -76.857445 -8.7839642 161.87535
243640000 -8.3628302 162.68353 -4.9175701 -82.42067 -5.8323402 -78.625168 -8.664011 161.14455
250130000 -8.2430401 161.9687 -4.9525452 -84.383072 -5.9336643 -80.431625 -8.570159 160.35469
256620000 -8.1489201 161.27762 -4.9909096 -86.455139 -6.0558114 -82.15107 -8.5071125 159.56966
263110000 -8.078764 160.61659 -5.0533652 -88.577461 -6.1735463 -83.893997 -8.4404221 159.00752
269600000 -7.9792976 160.12025 -5.1206522 -90.63295 -6.2847414 -85.441315 -8.357419 158.44749
276090000 -7.8677421 159.40421 -5.1817865 -92.686737 -6.3758144 -87.155571 -8.2795153 157.69995
282580000 -7.7730074 158.68881 -5.2508745 -94.882301 -6.4986329 -88.780525 -8.214221 157.17361
289070000 -7.660584 157.78993 -5.3272018 -96.933586 -6.5914159 -90.431015 -8.1174803 156.44438
295560000 -7.5521007 156.93578 -5.4125252 -98.955894 -6.6930056 -91.881813 -8.0286999 155.75145
302050000 -7.433217 155.86215 -5.4995313 -101.05534 -6.7788887 -93.482536 -7.9310427 154.92194
308540000 -7.3278356 154.77847 -5.6060514 -103.09747 -6.8591909 -95.170761 -7.8157659 153.96274
315030000 -7.2095723 153.56534 -5.6996441 -105.00917 -6.9475436 -96.852638 -7.7250662 152.93874
321520000 -7.1082096 152.30901 -5.8040566 -106.92094 -7.0435557 -98.583099 -7.6453481 151.92836
328010000 -7.005939 151.1041 -5.8967133 -108.76232 -7.1342754 -100.36794 -7.5444098 150.7816
334500000 -6.921463 149.80353 -5.9834599 -110.60808 -7.247683 -102.16068 -7.4762301 149.67847
340990000 -6.8395047 148.60124 -6.0717239 -112.52879 -7.3697996 -103.9719 -7.4195752 148.57819
347480000 -6.7524633 147.46709 -6.1770644 -114.30595 -7.4919281 -105.59104 -7.3452873 147.48991
353970000 -6.6802239 146.31985 -6.276845 -116.0587 -7.6178584 -107.38116 -7.2916589 146.40033
360460000 -6.6090593 145.04761 -6.3443303 -117.76092 -7.7523766 -109.09062 -7.2328219 145.17453
366950000 -6.5560174 143.92087 -6.4208245 -119.58873 -7.8990583 -110.72066 -7.1981058 143.97694
373440000 -6.5025816 142.77637 -6.5051012 -121.41764 -8.0517769 -112.26914 -7.1794662 142.88832
379930000 -6.4505482 141.59221 -6.588871 -123.27328 -8.194622 -113.82462 -7.1468854 141.73386
386420000 -6.4039073 140.4325 -6.6711259 -125.13992 -8.3494692 -115.26389 -7.1392994 140.6279
392910000 -6.3588705 139.173 -6.7740445 -126.98853 -8.4971552 -116.66239 -7.1152086 139.54881
399400000 -6.3123627 137.84279 -6.8761964 -128.72424 -8.646677 -118.12948 -7.0914922 138.44394
405890000 -6.2842169 136.80176 -6.9801197 -130.78706 -8.8086367 -119.36425 -7.092525 137.45044
412380000 -6.2150407 135.53699 -7.1542192 -132.44893 -8.9322119 -120.57075 -7.02422 136.5788
418870000 -6.1504059 134.04826 -7.2887225 -133.70773 -9.0494041 -121.9952 -6.9574113 135.21466
425360000 -6.1228595 132.57565 -7.3681931 -135.1394 -9.1997242 -123.37411 -6.9331255 133.85292
431850000 -6.0855875 131.21909 -7.4630661 -136.53485 -9.344553 -124.59686 -6.906527 132.5574
438340000 -6.0446448 129.74336 -7.5431871 -137.82555 -9.4598379 -125.92044 -6.8960767 131.08984
444830000 -6.0580578 128.2146 -7.5561609 -139.49345 -9.639698 -127.60796 -6.9641976 129.70531
451320000 -6.1013908 127.39545 -7.6754189 -141.64029 -9.9048176 -128.24382 -6.9759955 129.24005
457810000 -6.0251484 126.81033 -7.9088783 -143.11533 -9.9798212 -128.18159 -6.8724213 128.43826
464300000 -5.8546185 125.70097 -8.1053419 -143.61057 -9.8899536 -128.97504 -6.7610869 126.68232
470790000 -5.7004242 123.78176 -8.1508112 -143.7715 -9.8025198 -130.8866 -6.7610545 124.44811
477280000 -5.6221848 121.36974 -8.1116037 -144.05962 -9.812624 -133.63078 -6.8747749 122.34481
483770000 -5.6388297 118.67293 -7.9952965 -144.81436 -9.9663315 -136.70551 -7.0543523 120.64423
490260000 -5.7570467 116.04113 -7.8472967 -146.12386 -10.243849 -139.46844 -7.2760549 119.40254
496750000 -5.962358 113.67908 -7.7292457 -147.83167 -10.592049 -141.85506 -7.4816723 118.65731
503240000 -6.2608843 111.81213 -7.6300607 -149.76926 -10.996193 -144.04198 -7.6659384 118.20126
509730000 -6.6087317 110.81056 -7.5380588 -151.88556 -11.515663 -145.74646 -7.8318162 117.98051
516220000 -6.901413 110.81449 -7.4437242 -154.30794 -12.131052 -146.50716 -7.9599519 118.06858
522710000 -7.0785689 111.36561 -7.3758025 -157.00374 -12.737628 -145.7383 -8.0523014 118.10323
529200000 -7.153142 111.92508 -7.3807673 -159.97581 -13.224237 -143.62198 -8.106782 118.29859
535690000 -7.1560683 112.37608 -7.4626169 -162.91711 -13.459073 -140.67195 -8.1133032 118.64333
542180000 -7.0976925 112.53214 -7.6019678 -165.63637 -13.46767 -138.13802 -8.0869217 118.73386
548670000 -7.0122981 112.34747 -7.7717538 -168.09598 -13.322268 -136.50249 -8.0340738 118.71791
555160000 -6.9309039 111.90894 -7.9523211 -170.22229 -13.146381 -135.80666 -7.9851928 118.67144
561650000 -6.8580832 111.24491 -8.1475706 -172.1274 -12.976193 -135.88126 -7.9228268 118.43398
568140000 -6.8058257 110.51787 -8.3161688 -173.66148 -12.844619 -136.44221 -7.8657165 118.18887
574630000 -6.7621803 109.68071 -8.4708862 -175.08205 -12.757649 -137.28986 -7.8008628 117.82596
581120000 -6.7286034 108.87027 -8.6032429 -176.30309 -12.715704 -138.39952 -7.7386489 117.41157
587610000 -6.6992798 108.03693 -8.7220774 -177.47269 -12.72452 -139.43434 -7.6925178 116.93652
594100000 -6.6829066 107.11266 -8.8000841 -178.56395 -12.750629 -140.56808 -7.6432762 116.41763
600590000 -6.6600671 106.18034 -8.8557196 -179.56802 -12.809175 -141.65439 -7.5925045 115.85995
607080000 -6.6585073 105.18935 -8.8768711 179.45204 -12.891136 -142.75357 -7.5586243 115.23468
613570000 -6.6649771 104.21732 -8.8515453 178.38937 -13.006013 -143.91017 -7.5441661 114.63556
620060000 -6.6954775 103.39038 -8.7833366 177.05522 -13.184153 -144.93584 -7.5389485 114.09908
626550000 -6.7297153 102.65807 -8.7095366 175.37769 -13.423607 -145.6624 -7.5441527 113.84183
633040000 -6.756906 102.08148 -8.6458216 173.41351 -13.688305 -145.89697 -7.5226574 113.76772
639530000 -6.7882929 101.55938 -8.6167021 171.28326 -13.939273 -145.56285 -7.4697504 113.78262
646020000 -6.8225279 101.21194 -8.6107445 169.07578 -14.166001 -144.68199 -7.3808923 113.82468
652510000 -6.8708682 101.06722 -8.6181889 167.00781 -14.357644 -143.36052 -7.2703457 113.81162
659000000 -6.8957992 101.15944 -8.6103783 164.86028 -14.477206 -141.69623 -7.1355438 113.77911
665490000 -6.8815651 101.65845 -8.5998945 162.65598 -14.507212 -139.72997 -6.972702 113.64253
671980000 -6.814867 102.14301 -8.5910721 160.26172 -14.432067 -137.55798 -6.7880011 113.42206
678470000 -6.6746325 102.60957 -8.5898075 157.6572 -14.259912 -135.50346 -6.5892525 112.96052
684960000 -6.4853945 102.80499 -8.6223135 154.86465 -13.987993 -133.85057 -6.3852787 112.36286
691450000 -6.2525434 102.70279 -8.6851559 152.13177 -13.624213 -132.66463 -6.1699238 111.57197
697940000 -6.0050263 102.25864 -8.7818661 149.33603 -13.245489 -132.07849 -5.9574208 110.56929
704430000 -5.7540712 101.45316 -8.9048424 146.5162 -12.844389 -132.09724 -5.7651377 109.39152
710920000 -5.5184174 100.39158 -9.0624447 143.7784 -12.46701 -132.68648 -5.5774512 108.10438
717410000 -5.3001328 99.191856 -9.2254438 141.23651 -12.11127 -133.56297 -5.4022198 106.69366
723900000 -5.0904531 97.88134 -9.4113598 138.7536 -11.789682 -134.69467 -5.2446561 105.18434
730390000 -4.8977852 96.453606 -9.6115913 136.29553 -11.50135 -136.01369 -5.0979695 103.67493
736880000 -4.7188096 95.081497 -9.815053 134.07542 -11.238628 -137.41072 -4.9591975 102.11772
743370000 -4.5507421 93.638039 -10.034487 131.79184 -10.990111 -138.98189 -4.8311291 100.44679
749860000 -4.3825073 92.184555 -10.26222 129.72255 -10.759536 -140.54843 -4.7128382 98.849129
756350000 -4.2200861 90.707565 -10.475325 127.683 -10.559962 -142.28914 -4.600472 97.165649
762840000 -4.0598035 89.14563 -10.698483 125.79071 -10.374408 -144.02373 -4.5085425 95.465385
769330000 -3.9070094 87.520508 -10.923426 123.90982 -10.205564 -145.85254 -4.4167595 93.774055
775820000 -3.7779756 85.73616 -11.156758 121.95506 -10.075443 -147.67899 -4.3389063 92.011024
782310000 -3.6457832 83.894676 -11.389148 120.17916 -9.9432211 -149.51848 -4.2715507 90.285309
788800000 -3.530057 82.007553 -11.616201 118.31188 -9.842207 -151.3233 -4.2254872 88.499847
795290000 -3.4450283 79.956589 -11.877709 116.55054 -9.753046 -153.08788 -4.1825185 86.750069
801780000 -3.361382 77.81105 -12.119351 114.72677 -9.6631517 -154.84355 -4.1446905 84.984413
808270000 -3.2915304 75.669617 -12.386182 112.88857 -9.5951567 -156.49118 -4.1176138 83.160484
814760000 -3.2446198 73.485527 -12.657876 111.07534 -9.5365334 -158.0873 -4.101613 81.375198
821250000 -3.2069101 71.235123 -12.957096 109.12989 -9.4940643 -159.70833 -4.1001897 79.518768
827740000 -3.1815341 68.981628 -13.296283 107.099 -9.4347305 -161.15265 -4.1060357 77.746422
834230000 -3.1848238 66.773254 -13.699207 105.11251 -9.3964443 -162.47153 -4.1282644 75.901848
840720000 -3.2045522 64.541985 -14.168674 103.16705 -9.3472271 -163.68472 -4.1679783 74.089104
847210000 -3.2609572 62.330238 -14.740136 101.36228 -9.2774401 -164.78215 -4.2256265 72.410561
853700000 -3.3445306 60.270218 -15.456073 100.02171 -9.1941757 -165.85785 -4.3133903 70.684311
860190000 -3.4662561 58.313457 -16.333986 99.653053 -9.0713911 -166.89099 -4.4204574 69.167221
866680000 -3.6244633 56.617279 -17.370283 101.10727 -8.8940582 -167.96881 -4.5568604 67.99115
873170000 -3.8170941 55.304562 -18.461737 105.65183 -8.7017879 -169.33456 -4.6908741 67.095627
879660000 -4.0125728 54.517384 -19.257738 114.09791 -8.487505 -171.18797 -4.8108892 66.59584
886150000 -4.1715488 54.199387 -19.279369 124.96842 -8.2949572 -173.44615 -4.8683372 66.481056
892640000 -4.2629423 54.242146 -18.485834 133.98274 -8.1656218 -175.89314 -4.842041 66.442162
899130000 -4.2602 54.317558 -17.347887 138.80305 -8.0951262 -178.5401 -4.748651 66.167862
905620000 -4.1840963 54.093636 -16.217125 140.27319 -8.0973454 178.90129 -4.6310172 65.556641
912110000 -4.0615606 53.552303 -15.233875 139.63828 -8.1370716 176.63791 -4.4868021 64.547203
918600000 -3.9201922 52.534252 -14.434165 137.60689 -8.2064724 174.63658 -4.357583 63.30468
925090000 -3.7943585 51.215523 -13.793063 134.93095 -8.2705803 172.95383 -4.2454576 61.85952
931580000 -3.6975174 49.71933 -13.312111 131.85602 -8.3477058 171.45442 -4.1649742 60.332767
938070000 -3.6162853 48.157841 -12.933907 128.65588 -8.3928518 170.2162 -4.0924239 58.811913
944560000 -3.5540233 46.528286 -12.658167 125.43996 -8.4339914 168.99599 -4.035903 57.234589
951050000 -3.5004089 45.051907 -12.450581 122.39538 -8.4485998 168.0659 -3.9910679 55.658596
957540000 -3.4637406 43.502949 -12.311453 119.47117 -8.4215946 167.03391 -3.9340973 54.144611
964030000 -3.4165807 42.082382 -12.206694 116.69474 -8.3850822 165.95761 -3.9026337 52.445477
970520000 -3.3791435 40.628494 -12.138695 114.12511 -8.3348446 164.82863 -3.8675108 50.866283
977010000 -3.3437705 39.157642 -12.093235 111.72079 -8.2787495 163.61028 -3.8524082 49.268261
983500000 -3.3151884 37.682777 -12.063344 109.46947 -8.2227507 162.34483 -3.8435192 47.617771
989990000 -3.2786448 36.224327 -12.014541 107.46912 -8.1648817 161.13193 -3.8431458 46.077225
996480000 -3.2478139 34.666859 -11.987487 105.48504 -8.117732 159.78767 -3.8479586 44.448883
1002970000 -3.2261667 33.115734 -11.945627 103.51282 -8.0703554 158.50087 -3.8571906 42.866741
1009460000 -3.2093196 31.508497 -11.903143 101.63287 -8.0139132 157.21111 -3.8690157 41.227966
1015950000 -3.1920629 29.830667 -11.847551 99.736504 -7.9593835 155.96188 -3.8851173 39.694016
1022440000 -3.1778843 28.177826 -11.815796 97.757225 -7.9037995 154.71918 -3.9086313 38.040314
1028930000 -3.1660328 26.498127 -11.778292 95.847038 -7.8480096 153.49945 -3.9451723 36.453247
1035420000 -3.1643341 24.823105 -11.747459 93.865746 -7.779346 152.32542 -3.9852901 34.893253
1041910000 -3.1709926 23.107441 -11.722293 91.918449 -7.7084002 151.09354 -4.0354095 33.360935
1048400000 -3.1765957 21.451401 -11.701477 89.993286 -7.6238685 149.88539 -4.0769506 31.820858
1054890000 -3.1821313 19.83276 -11.679263 88.101166 -7.5354414 148.57639 -4.1254067 30.282341
1061380000 -3.2042687 18.183228 -11.675665 86.163872 -7.441371 147.22049 -4.1824083 28.790108
1067870000 -3.2284539 16.553026 -11.677216 84.315109 -7.3423257 145.86044 -4.2339358 27.351851
1074360000 -3.2616982 14.913696 -11.673541 82.517998 -7.2460728 144.39406 -4.302887 25.946608
1080850000 -3.2956605 13.329739 -11.670053 80.824768 -7.1433539 142.95959 -4.3669362 24.604153
1087340000 -3.3479118 11.675932 -11.66892 79.144463 -7.0449786 141.48259 -4.4287357 23.277235
1093830000 -3.4089782 10.142386 -11.660794 77.545578 -6.9429626 139.98227 -4.4936528 21.917286
1100320000 -3.4656739 8.6018209 -11.649955 75.9851 -6.8335667 138.40712 -4.5717125 20.663244
1106810000 -3.531199 7.1033645 -11.621019 74.503632 -6.7272573 136.7735 -4.6408515 19.419464
1113300000 -3.5977814 5.6681399 -11.584754 73.052246 -6.6206489 135.03365 -4.7277441 18.221514
1119790000 -3.6604624 4.2490578 -11.528871 71.587868 -6.5278482 133.23233 -4.7888021 17.126251
1126280000 -3.7146933 2.8137639 -11.442017 70.012749 -6.4375992 131.32722 -4.8571916 16.059406
1132770000 -3.7747705 1.4888005 -11.347706 68.374405 -6.3777609 129.39299 -4.9156404 15.047653
1139260000 -3.8262112 0.12895209 -11.243844 66.496368 -6.3138776 127.41605 -4.9717498 14.050163
1145750000 -3.8800759 -1.1657922 -11.119658 64.52182 -6.2708693 125.53067 -5.0124168 13.129135
1152240000 -3.9501016 -2.3298404 -11.031947 62.357811 -6.2566242 123.67872 -5.0638614 12.248286
1158730000 -4.0130439 -3.5416474 -10.945576 59.908367 -6.254087 121.80033 -5.1058903 11.356707
1165220000 -4.0763917 -4.5596042 -10.886458 57.356125 -6.2516098 120.15407 -5.1262598 10.625211
1171710000 -4.1380615 -5.5071745 -10.853183 54.763695 -6.2478905 118.53505 -5.1293573 9.9576273
1178200000 -4.1805859 -6.3249917 -10.87411 52.037933 -6.2385273 117.02428 -5.1178789 9.1981859
1184690000 -4.2118163 -7.0942454 -10.949487 49.572006 -6.2148204 115.61491 -5.0825849 8.487833
1191180000 -4.2083936 -7.8831797 -11.068591 47.276775 -6.1944885 114.15213 -5.0198388 7.618319
1197670000 -4.1839652 -8.7689295 -11.204926 45.512356 -6.1731906 112.74124 -4.9393396 6.6337051
1204160000 -4.1385794 -9.7219896 -11.323054 44.236511 -6.1558857 111.44914 -4.8535318 5.5065322
1210650000 -4.0784764 -11.021562 -11.365863 43.336384 -6.1241832 110.21857 -4.7573023 4.2168617
1217140000 -4.0113597 -12.479971 -11.316907 42.50425 -6.0808282 108.95341 -4.6742587 2.5557332
1223630000 -3.9802806 -14.0116 -11.209814 41.443314 -6.0242095 107.75479 -4.6009998 0.80545133
1230120000 -3.958734 -15.594389 -11.041489 39.884457 -5.9436989 106.51205 -4.5533161 -0.9325726
1236610000 -3.9545305 -17.171463 -10.902244 37.814583 -5.8818221 105.26096 -4.5367517 -2.7168798
1243100000 -3.9559968 -18.590191 -10.803303 35.496609 -5.8083715 104.07262 -4.5290065 -4.4074488
1249590000 -3.9469762 -19.96734 -10.754636 33.171448 -5.7360334 102.80676 -4.5297456 -6.045167
1256080000 -3.9361975 -21.301874 -10.733369 30.967443 -5.6484694 101.63564 -4.5254602 -7.7377658
1262570000 -3.9046118 -22.584377 -10.695258 28.89991 -5.534101 100.54312 -4.5085645 -9.4100456
1269060000 -3.8602908 -24.106535 -10.640817 26.816551 -5.3916869 99.281013 -4.4888167 -11.161192
1275550000 -3.8221703 -25.690891 -10.59752 24.678003 -5.2345376 97.993637 -4.4903202 -13.000811
1282040000 -3.7953169 -27.471489 -10.536221 22.560658 -5.0581017 96.383751 -4.4936643 -14.930968
1288530000 -3.7890167 -29.303373 -10.484938 20.413536 -4.8972306 94.691696 -4.5317206 -16.840242
1295020000 -3.8077166 -31.239889 -10.4272 18.163021 -4.7490163 92.799622 -4.5606623 -18.764029
1301510000 -3.8431489 -33.132351 -10.385024 15.875897 -4.6008143 90.899094 -4.6015968 -20.712879
1308000000 -3.8893793 -35.137753 -10.343263 13.534445 -4.4873977 88.913742 -4.6575794 -22.64171
1314490000 -3.9362729 -36.98143 -10.304308 11.239305 -4.3780828 86.952515 -4.7194724 -24.620319
1320980000 -3.9929945 -38.912071 -10.275781 8.8463593 -4.2678227 84.972557 -4.7777719 -26.46454
1327470000 -4.0563078 -40.77906 -10.245392 6.4978342 -4.1683125 83.049767 -4.8308811 -28.368647
1333960000 -4.1173983 -42.647411 -10.219488 4.1095877 -4.0734487 81.034119 -4.9011946 -30.289249
1340450000 -4.1725945 -44.520046 -10.206554 1.6872869 -3.98996 79.058105 -4.972312 -32.157845
1346940000 -4.2355747 -46.245792 -10.173469 -0.68568176 -3.8970723 77.113304 -5.0406017 -34.002083
1353430000 -4.2958684 -47.933266 -10.164923 -3.0841665 -3.8111339 75.087914 -5.1246433 -35.898006
