!Keysight Technologies,P9371A,MY57211172,A.13.10.05
!Date: Monday, March 30, 2026 15:49:45
!Correction: S11(Full 2 Port(1,2)) 
!S21(Full 2 Port(1,2)) 
!S12(Full 2 Port(1,2)) 
!S22(Full 2 Port(1,2)) 
!S2P File: Measurements: S11, S21, S12, S22:
# Hz S  dB   R 50
10000000 -9.5455294 178.91438 -3.5161445 -3.5671597 -3.5176601 -3.5556831 -9.6019163 179.29808
16490000 -9.6490698 177.91626 -3.5570798 -6.1099067 -3.5553899 -6.0932746 -9.7290173 178.35829
22980000 -9.5351896 178.76244 -3.5386338 -7.8122988 -3.530376 -7.7823477 -9.5785151 179.37724
29470000 -9.4951763 178.68076 -3.5468276 -9.889411 -3.52912 -9.8590775 -9.5441322 179.29836
35960000 -9.4714413 178.4856 -3.5663261 -12.029029 -3.5362229 -12.014253 -9.5067949 179.1853
42450000 -9.4157839 178.27711 -3.5726838 -14.160258 -3.5504355 -14.159691 -9.464962 178.95563
48940000 -9.3709288 178.0125 -3.5904183 -16.301733 -3.5557787 -16.283571 -9.4086552 178.74522
55430000 -9.3020134 177.69743 -3.6035521 -18.440134 -3.5518773 -18.388699 -9.3385839 178.47531
61920000 -9.2400331 177.34106 -3.6184547 -20.595327 -3.5625191 -20.575769 -9.2913761 178.13692
68410000 -9.173049 176.9227 -3.6423953 -22.717276 -3.5701392 -22.681635 -9.2128954 177.80121
74900000 -9.0925932 176.27753 -3.6594055 -24.901381 -3.5761368 -24.848253 -9.155385 177.37309
81390000 -9.0164042 175.80618 -3.6872139 -27.048115 -3.5848172 -26.969992 -9.0729256 176.89069
87880000 -8.946126 175.01688 -3.711525 -29.267679 -3.5954428 -29.170696 -9.0020456 176.30009
94370000 -8.8555117 174.1685 -3.7374384 -31.468786 -3.5944412 -31.36355 -8.9269285 175.57327
100860000 -8.7871494 173.41003 -3.7730837 -33.661152 -3.6014113 -33.55064 -8.8457355 174.87944
107350000 -8.717968 172.46332 -3.805855 -35.893494 -3.6102469 -35.734745 -8.7683725 174.05763
113840000 -8.6431913 171.49709 -3.845638 -38.083965 -3.6153498 -37.94833 -8.695425 173.21465
120330000 -8.5791483 170.35368 -3.8790989 -40.377129 -3.6181409 -40.154121 -8.6194468 172.25673
126820000 -8.534296 169.22214 -3.9304111 -42.628483 -3.6209092 -42.3577 -8.5626917 171.19331
133310000 -8.5074568 167.99181 -3.9846714 -44.941383 -3.6271963 -44.614357 -8.4948053 170.1243
139800000 -8.5027866 166.80226 -4.0446587 -47.206486 -3.6313505 -46.91431 -8.4551258 168.93372
146290000 -8.5186777 165.47652 -4.1098447 -49.522877 -3.6294775 -49.208344 -8.4180641 167.63525
152780000 -8.5814238 164.15614 -4.1881742 -51.821182 -3.6345632 -51.598888 -8.4220333 166.23547
159270000 -8.6841326 162.96683 -4.2850218 -54.144733 -3.6373651 -54.025967 -8.4549685 164.76178
165760000 -8.8428726 161.82574 -4.4003224 -56.452217 -3.6493504 -56.612316 -8.5530262 163.23613
172250000 -9.0543299 161.18291 -4.5453305 -58.674919 -3.6690683 -59.234352 -8.7011662 161.86154
178740000 -9.2789516 161.10788 -4.7049632 -60.655556 -3.7163985 -62.044476 -8.9343309 160.82281
185230000 -9.4639883 161.83055 -4.8672328 -62.327442 -3.8021116 -64.904854 -9.2104912 160.52777
191720000 -9.547411 162.99733 -4.9831691 -63.759243 -3.9505634 -67.69384 -9.4469318 161.22905
198210000 -9.4882946 164.03101 -5.0458908 -65.193375 -4.1299157 -70.061371 -9.5608253 162.47443
204700000 -9.3336811 164.7749 -5.084682 -66.875938 -4.311739 -72.070129 -9.5332546 163.71321
211190000 -9.1494799 164.94305 -5.1259646 -68.819115 -4.4444208 -73.751297 -9.4207335 164.42625
217680000 -8.973814 164.75812 -5.1889029 -70.878418 -4.5439692 -75.425865 -9.3015461 164.66109
224170000 -8.795433 164.4521 -5.2839336 -72.930305 -4.6294556 -77.095009 -9.1696348 164.81744
230660000 -8.6288528 163.8197 -5.392797 -75.013496 -4.680047 -78.870239 -9.0332727 164.6434
237150000 -8.4921618 163.12234 -5.5201378 -76.964851 -4.7285099 -80.75325 -8.9088507 164.33301
243640000 -8.3723726 162.45969 -5.6461101 -78.728973 -4.7760558 -82.614372 -8.7793293 163.94894
250130000 -8.2550659 161.70236 -5.7657642 -80.489609 -4.818975 -84.664894 -8.6915789 163.52657
256620000 -8.1606073 161.02779 -5.8907938 -82.123405 -4.8746958 -86.682037 -8.6019926 163.15697
263110000 -8.077013 160.36993 -6.012475 -83.747536 -4.9362998 -88.789909 -8.5040941 162.9232
269600000 -7.979393 159.87102 -6.1214218 -85.221375 -5.0137463 -90.825974 -8.3786192 162.61806
276090000 -7.8653955 159.20294 -6.218904 -86.8116 -5.0833516 -92.833824 -8.2519236 162.17088
282580000 -7.7716289 158.49577 -6.3234663 -88.291542 -5.151412 -94.885536 -8.1223125 161.70894
289070000 -7.6571169 157.60223 -6.4062033 -89.820038 -5.2330532 -96.883667 -7.9815488 161.02399
295560000 -7.5471706 156.79156 -6.4788952 -91.21582 -5.3105025 -98.871292 -7.8533869 160.27745
302050000 -7.4313226 155.73871 -6.5500822 -92.835068 -5.3948665 -100.86314 -7.7207484 159.43355
308540000 -7.3238039 154.66682 -6.6195822 -94.426575 -5.4838076 -102.86273 -7.5815783 158.4543
315030000 -7.2049441 153.47803 -6.671711 -96.115479 -5.5792971 -104.73949 -7.4699945 157.42497
321520000 -7.1041751 152.23305 -6.7481799 -97.932877 -5.6635647 -106.62708 -7.3716259 156.33891
328010000 -7.0098295 151.03354 -6.828609 -99.751854 -5.749403 -108.45802 -7.2744761 155.24478
334500000 -6.9218025 149.74295 -6.9212151 -101.52579 -5.8285728 -110.33438 -7.1855383 154.11501
340990000 -6.8456388 148.55223 -7.0133505 -103.3616 -5.9125223 -112.19242 -7.1118369 153.03162
347480000 -6.7616758 147.4131 -7.1225581 -105.16199 -6.009037 -114.01135 -7.0338311 151.88519
353970000 -6.6933198 146.26799 -7.2400761 -106.94394 -6.0895042 -115.87881 -6.9671402 150.83496
360460000 -6.6245923 144.98213 -7.364306 -108.7697 -6.1575656 -117.5953 -6.9061246 149.66075
366950000 -6.5673056 143.8493 -7.5026708 -110.40429 -6.2415519 -119.52928 -6.8603435 148.65936
373440000 -6.5106678 142.72343 -7.6400342 -112.00344 -6.3276186 -121.35077 -6.8057489 147.61403
379930000 -6.4638138 141.5545 -7.77385 -113.61321 -6.4114342 -123.18761 -6.7437029 146.51538
386420000 -6.4148741 140.3882 -7.9078183 -115.07123 -6.4920311 -125.0379 -6.7024722 145.4577
392910000 -6.3674479 139.14149 -8.0492792 -116.50097 -6.5925694 -126.83795 -6.6395774 144.44904
399400000 -6.3187695 137.80975 -8.1703091 -118.0394 -6.6867566 -128.61055 -6.5898438 143.24046
405890000 -6.287375 136.76247 -8.3279324 -119.30283 -6.7899604 -130.56644 -6.5432906 142.37157
412380000 -6.2269883 135.51471 -8.4035149 -120.55283 -6.9448018 -132.14859 -6.4281554 141.12616
418870000 -6.1604261 134.05679 -8.5030384 -122.22319 -7.0376678 -133.53514 -6.3821378 139.52753
425360000 -6.1334839 132.59532 -8.635747 -123.90195 -7.1154528 -135.09497 -6.3764396 138.18597
431850000 -6.0977802 131.23305 -8.7774096 -125.3837 -7.2026048 -136.68134 -6.36482 136.99411
438340000 -6.0539646 129.78009 -8.9200144 -126.89613 -7.3048029 -138.15163 -6.3414168 135.72046
444830000 -6.0734086 128.22177 -9.1121626 -128.61224 -7.3394761 -139.62877 -6.3529 134.49991
451320000 -6.1145225 127.37944 -9.33601 -129.45186 -7.4417367 -141.69582 -6.338809 133.74677
457810000 -6.0412941 126.81569 -9.4550447 -129.98962 -7.6382089 -143.37419 -6.2708135 132.75407
464300000 -5.8718972 125.7002 -9.4858952 -130.92079 -7.8219156 -144.21101 -6.2040977 131.3439
470790000 -5.7150297 123.79134 -9.4641886 -132.39124 -7.9208684 -144.67322 -6.1822701 129.82494
477280000 -5.6350613 121.36678 -9.4965715 -134.56049 -7.9493222 -145.14247 -6.1860771 128.29488
483770000 -5.6459064 118.67265 -9.6480417 -137.06329 -7.8980551 -145.67938 -6.1990957 126.69008
490260000 -5.7616324 116.03899 -9.8763647 -139.34181 -7.7768345 -146.621 -6.2790875 125.01026
496750000 -5.9671168 113.69338 -10.157876 -141.30566 -7.6518383 -148.03726 -6.4174895 123.53693
503240000 -6.2608724 111.81309 -10.47859 -143.28226 -7.5140395 -149.92686 -6.5884328 122.64168
509730000 -6.608479 110.83017 -10.895433 -145.06239 -7.4219623 -152.2394 -6.7279162 122.22713
516220000 -6.9019756 110.88182 -11.423359 -146.11327 -7.397737 -154.76973 -6.8042126 122.07032
522710000 -7.0850253 111.3973 -11.979036 -145.67151 -7.3982801 -157.20589 -6.8291621 121.86302
529200000 -7.1592293 112.02157 -12.409664 -143.90593 -7.4338784 -159.65804 -6.8314247 121.47202
535690000 -7.1654963 112.44701 -12.641812 -141.47061 -7.513155 -162.18224 -6.828753 121.15186
542180000 -7.1051846 112.6437 -12.660857 -139.22777 -7.6461806 -164.46758 -6.8178058 120.86141
548670000 -7.0221148 112.4967 -12.549235 -137.81685 -7.7977419 -166.50125 -6.7718148 120.55765
555160000 -6.9459004 112.02618 -12.374356 -137.20671 -7.9560709 -168.09271 -6.7167215 120.18827
561650000 -6.8729014 111.38229 -12.210616 -137.35872 -8.0809202 -169.54762 -6.6458817 119.56915
568140000 -6.8179336 110.66528 -12.063954 -137.77457 -8.1877222 -170.81331 -6.5841789 118.96197
574630000 -6.7744374 109.83073 -11.964015 -138.58205 -8.2745209 -171.96657 -6.51794 118.23933
581120000 -6.7429757 109.01384 -11.886271 -139.57765 -8.3362026 -173.13977 -6.4564853 117.4119
587610000 -6.7139935 108.16596 -11.848373 -140.60733 -8.3666439 -174.17667 -6.4092727 116.55404
594100000 -6.6956911 107.26237 -11.826339 -141.81967 -8.3785734 -175.34515 -6.3683181 115.61426
600590000 -6.6743097 106.33349 -11.822973 -143.04347 -8.361455 -176.44131 -6.3379741 114.65959
607080000 -6.6734204 105.32612 -11.873192 -144.3764 -8.314764 -177.68805 -6.3337016 113.63974
613570000 -6.6836596 104.38258 -11.97305 -145.74493 -8.2357826 -178.90671 -6.3436546 112.70339
620060000 -6.7077475 103.53235 -12.119964 -146.64349 -8.125247 179.49257 -6.3696384 111.96087
626550000 -6.7506394 102.84333 -12.286242 -147.12306 -8.0167236 177.55357 -6.3936315 111.42889
633040000 -6.7707062 102.2099 -12.395917 -147.29982 -7.9170513 175.36678 -6.391541 111.06863
639530000 -6.8042727 101.72157 -12.478393 -147.28421 -7.843873 173.01845 -6.3573527 110.73553
646020000 -6.8431292 101.3419 -12.524006 -147.40331 -7.7904077 170.52983 -6.2972159 110.41804
652510000 -6.8934898 101.20836 -12.559598 -147.53801 -7.7656775 167.94739 -6.2265105 109.96891
659000000 -6.9140143 101.30611 -12.593519 -147.80356 -7.7546887 165.29488 -6.1450896 109.50361
665490000 -6.9028521 101.78231 -12.656391 -147.96089 -7.7577429 162.53909 -6.0568409 109.06747
671980000 -6.8347502 102.28358 -12.735758 -147.80725 -7.783452 159.79739 -5.9466968 108.60915
678470000 -6.6920276 102.72348 -12.778927 -147.27902 -7.8447418 156.96904 -5.8240929 108.01453
684960000 -6.5011182 102.93061 -12.777221 -146.49327 -7.9351559 154.11667 -5.691267 107.39017
691450000 -6.2648354 102.842 -12.687164 -145.53238 -8.0489893 151.40453 -5.5412078 106.61071
697940000 -6.0164919 102.40171 -12.50811 -144.79048 -8.1940384 148.84636 -5.3883018 105.69746
704430000 -5.7652049 101.59153 -12.287656 -144.38884 -8.3269577 146.39784 -5.2447505 104.6479
710920000 -5.5248466 100.5446 -12.035401 -144.45641 -8.4913254 143.97626 -5.1012321 103.44533
717410000 -5.3117957 99.315239 -11.784014 -144.75925 -8.6355639 141.72342 -4.9613543 102.19529
723900000 -5.0953078 98.022133 -11.529113 -145.46858 -8.7915421 139.53647 -4.8310695 100.85097
730390000 -4.9039435 96.588875 -11.298789 -146.40657 -8.9465466 137.27844 -4.71346 99.472801
736880000 -4.725738 95.225197 -11.075069 -147.4303 -9.1105833 135.1387 -4.596837 98.112434
743370000 -4.5630879 93.759674 -10.875978 -148.69334 -9.2790327 133.00729 -4.488802 96.579491
749860000 -4.3910222 92.314507 -10.689776 -149.97952 -9.4541588 130.99638 -4.3885984 95.090164
756350000 -4.2249947 90.845192 -10.513687 -151.32448 -9.6305323 129.03358 -4.2897067 93.60479
762840000 -4.0663638 89.260605 -10.350406 -152.70221 -9.8062248 127.09542 -4.2042503 92.015373
769330000 -3.9144113 87.626152 -10.19232 -154.13161 -9.9899817 125.30296 -4.1190553 90.472931
775820000 -3.7878053 85.857079 -10.056225 -155.68954 -10.177611 123.55424 -4.0363007 88.817062
782310000 -3.6548893 84.01017 -9.9187603 -157.2841 -10.353769 121.85867 -3.967365 87.214943
788800000 -3.5391104 82.114891 -9.7892485 -158.89763 -10.524665 120.22137 -3.9114468 85.453812
795290000 -3.4533637 80.065697 -9.6928101 -160.57201 -10.686258 118.6382 -3.8592792 83.750694
801780000 -3.3671591 77.962265 -9.5904875 -162.28613 -10.832736 117.00087 -3.8176057 81.981674
808270000 -3.3011906 75.810753 -9.5095997 -164.00745 -10.965929 115.3154 -3.7852724 80.132751
814760000 -3.2520523 73.632217 -9.439333 -165.65623 -11.105813 113.50706 -3.763624 78.311409
821250000 -3.2179585 71.410011 -9.3841448 -167.33406 -11.258073 111.54376 -3.7522945 76.397095
827740000 -3.1920464 69.168365 -9.3438215 -168.97661 -11.406456 109.56721 -3.7501817 74.542702
834230000 -3.1983676 66.929764 -9.3144665 -170.552 -11.595134 107.42002 -3.7622871 72.615311
840720000 -3.2200367 64.731667 -9.2969122 -172.0547 -11.818548 105.2122 -3.793051 70.657089
847210000 -3.2722394 62.489639 -9.2882137 -173.39909 -12.080175 102.95214 -3.8426819 68.790474
853700000 -3.3596194 60.420197 -9.2858095 -174.61703 -12.40032 100.71703 -3.9178412 66.793159
860190000 -3.4785068 58.443653 -9.2614622 -175.6006 -12.778583 98.62204 -4.0294909 64.926765
866680000 -3.6389 56.739094 -9.2132702 -176.34987 -13.232208 96.91674 -4.1776004 63.259922
873170000 -3.8318763 55.387283 -9.1022291 -177.1275 -13.756063 95.796532 -4.3611865 61.83371
879660000 -4.0270414 54.578548 -8.9499054 -178.06479 -14.32484 95.580177 -4.5812044 60.861038
886150000 -4.1862893 54.236111 -8.7540312 -179.33562 -14.865131 96.177284 -4.78161 60.46595
892640000 -4.281177 54.27594 -8.5650768 178.89764 -15.336832 97.884689 -4.9128451 60.617607
899130000 -4.2791057 54.374195 -8.4302454 176.79045 -15.68528 100.28424 -4.9590049 61.031975
905620000 -4.202879 54.138542 -8.3626022 174.50377 -15.877721 103.11569 -4.9137998 61.382179
912110000 -4.0770373 53.614044 -8.3360357 172.41264 -15.897044 106.05489 -4.7858839 61.311317
918600000 -3.9459455 52.582363 -8.3432817 170.55585 -15.752779 108.54483 -4.6157451 60.836113
925090000 -3.811995 51.315239 -8.3512888 168.97504 -15.467189 110.4232 -4.4542003 59.862839
931580000 -3.7153511 49.800686 -8.369997 167.60904 -15.136311 111.38766 -4.3163834 58.602261
938070000 -3.6332939 48.201145 -8.3591747 166.31595 -14.786066 111.50493 -4.2028227 57.179752
944560000 -3.5772326 46.59206 -8.3251324 164.97371 -14.464698 110.85197 -4.117744 55.637253
951050000 -3.5222597 45.113018 -8.2685089 163.8119 -14.198498 109.9192 -4.054409 54.140759
957540000 -3.4860737 43.585732 -8.2155275 162.5054 -13.979106 108.62845 -3.992029 52.636486
964030000 -3.4379909 42.157825 -8.143116 161.06386 -13.794414 107.27749 -3.9556963 51.031281
970520000 -3.4029272 40.711933 -8.0802517 159.56763 -13.651134 105.8611 -3.9200203 49.530472
977010000 -3.3640947 39.224098 -8.0275202 157.99255 -13.512517 104.49608 -3.8946748 48.04211
983500000 -3.3330443 37.744892 -7.992878 156.38432 -13.389038 103.14803 -3.8778162 46.531204
989990000 -3.294548 36.30785 -7.950489 154.95287 -13.273664 101.78262 -3.8697996 45.115437
996480000 -3.2661734 34.73608 -7.9247112 153.46246 -13.159965 100.3716 -3.8652854 43.674461
1002970000 -3.244082 33.220085 -7.8919706 152.07516 -13.059172 98.92234 -3.8596282 42.285099
1009460000 -3.2246418 31.581856 -7.8561344 150.64882 -12.949331 97.343903 -3.8486259 40.826763
1015950000 -3.203721 29.965557 -7.819149 149.31993 -12.851811 95.834465 -3.8394437 39.521793
1022440000 -3.1920948 28.306637 -7.7775946 147.92337 -12.761958 94.254204 -3.8323834 38.06218
1028930000 -3.1837156 26.646431 -7.7352104 146.53847 -12.674198 92.635628 -3.8279536 36.680431
1035420000 -3.184293 24.991703 -7.6968784 145.17409 -12.617835 90.964676 -3.824738 35.226723
1041910000 -3.1848314 23.289968 -7.6537666 143.77823 -12.55164 89.372681 -3.8214097 33.82655
1048400000 -3.1980283 21.630219 -7.601522 142.38492 -12.492475 87.783623 -3.805583 32.372162
1054890000 -3.2022722 20.000885 -7.5610757 141.00334 -12.439769 86.161194 -3.798965 30.874569
1061380000 -3.225167 18.330397 -7.5189371 139.57216 -12.387891 84.611168 -3.7926462 29.361229
1067870000 -3.2486653 16.709944 -7.4798799 138.26416 -12.335181 83.099731 -3.7758508 27.888607
1074360000 -3.2836058 15.053606 -7.4432478 136.88448 -12.272758 81.610138 -3.7776806 26.378052
1080850000 -3.3146911 13.438245 -7.3966279 135.6042 -12.210302 80.121101 -3.773896 24.838547
1087340000 -3.366019 11.783088 -7.3462725 134.35938 -12.140047 78.657906 -3.7787757 23.299385
1093830000 -3.425494 10.257577 -7.2960248 133.15579 -12.062696 77.282845 -3.7880187 21.726202
1100320000 -3.4835522 8.7128811 -7.2371974 131.98366 -11.975093 75.817261 -3.8120337 20.225697
1106810000 -3.5445769 7.2299218 -7.1583505 130.80171 -11.872569 74.389107 -3.8266649 18.66563
1113300000 -3.6123743 5.810997 -7.0705509 129.61032 -11.761966 72.833313 -3.8599825 17.117802
1119790000 -3.6725841 4.3902993 -6.9740286 128.3566 -11.639936 71.232948 -3.8890305 15.624352
1126280000 -3.723943 2.9855046 -6.8675957 127.012 -11.503704 69.467552 -3.9263349 14.126646
1132770000 -3.7824373 1.6700057 -6.7608123 125.56184 -11.374658 67.625465 -3.9629228 12.668733
1139260000 -3.8333793 0.29362297 -6.652956 124.02547 -11.223146 65.641113 -4.0015807 11.189149
1145750000 -3.8930285 -0.95304769 -6.5532923 122.45358 -11.082905 63.591152 -4.0386362 9.7796116
1152240000 -3.9579048 -2.1189835 -6.4596133 120.88155 -10.947906 61.309902 -4.0838065 8.3427677
1158730000 -4.0239677 -3.3123267 -6.3773293 119.14276 -10.826865 58.825634 -4.1339412 6.9252191
1165220000 -4.0895977 -4.3520699 -6.2971344 117.47746 -10.706729 56.126743 -4.1703773 5.629714
1171710000 -4.1471281 -5.2878866 -6.2104206 115.80077 -10.61599 53.270794 -4.2022638 4.4227042
1178200000 -4.1865053 -6.1104045 -6.1413193 114.07651 -10.570829 50.223751 -4.2271867 3.1660414
1184690000 -4.211175 -6.8895545 -6.0789003 112.32196 -10.577265 47.209389 -4.2381744 2.0033455
1191180000 -4.2111754 -7.7005677 -6.035368 110.59437 -10.646927 44.313465 -4.2388592 0.76973701
1197670000 -4.1792598 -8.6159792 -5.9953728 108.95245 -10.757397 41.701874 -4.218173 -0.40943742
1204160000 -4.1333785 -9.550602 -5.9826465 107.45444 -10.891967 39.498093 -4.1984553 -1.6813477
1210650000 -4.0714264 -10.841393 -5.9408808 106.10286 -11.010559 37.754288 -4.1626959 -2.9917071
1217140000 -4.0054598 -12.296335 -5.8871541 104.79397 -11.089781 36.063274 -4.1384606 -4.5282249
1223630000 -3.9786239 -13.815598 -5.8272009 103.54639 -11.138 34.609219 -4.1146598 -6.0866404
1230120000 -3.9564776 -15.421844 -5.7333407 102.25091 -11.14379 33.086304 -4.1005468 -7.6142917
1236610000 -3.9488201 -16.97673 -5.6426082 100.94514 -11.152966 31.464882 -4.0769234 -9.1336432
1243100000 -3.9496286 -18.368038 -5.5374331 99.57309 -11.127542 29.917885 -4.0429888 -10.732545
1249590000 -3.9437945 -19.733841 -5.4233708 98.154091 -11.123199 28.228323 -4.0140629 -12.52023
1256080000 -3.9292927 -21.050011 -5.3022246 96.597565 -11.100379 26.462717 -3.9986777 -14.537221
1262570000 -3.8997023 -22.3372 -5.181088 94.977448 -11.061906 24.806166 -3.9946122 -16.579618
1269060000 -3.8517697 -23.875587 -5.0582252 93.26873 -11.009713 23.099306 -4.0148721 -18.575521
1275550000 -3.8134828 -25.468088 -4.9514546 91.528099 -10.949544 21.440845 -4.0584421 -20.603573
1282040000 -3.788522 -27.247002 -4.8343792 89.846031 -10.859074 19.466518 -4.0930624 -22.625002
1288530000 -3.7807019 -29.108194 -4.723731 88.103149 -10.786561 17.446249 -4.1529469 -24.562616
1295020000 -3.8002214 -31.058437 -4.6109929 86.289764 -10.716145 15.255501 -4.2071729 -26.493044
1301510000 -3.8292274 -32.943047 -4.5070057 84.440811 -10.639002 13.074643 -4.2738338 -28.419264
1308000000 -3.876137 -34.942478 -4.410182 82.538414 -10.605465 10.762253 -4.3429914 -30.3379
1314490000 -3.9222288 -36.805767 -4.3138442 80.685539 -10.560579 8.5353746 -4.4168582 -32.219498
1320980000 -3.9778605 -38.723789 -4.2207546 78.803902 -10.520647 6.2137718 -4.4900222 -34.029358
1327470000 -4.036448 -40.599934 -4.1278515 76.901855 -10.492083 3.9425406 -4.5530534 -35.846466
1333960000 -4.0980511 -42.463356 -4.0466323 74.977745 -10.461055 1.6323947 -4.6334634 -37.704998
1340450000 -4.1557322 -44.338882 -3.9636183 73.073914 -10.42914 -0.7596035 -4.7192779 -39.532921
1346940000 -4.2147503 -46.057686 -3.872875 71.145699 -10.404078 -3.0564528 -4.7990813 -41.343082
1353430000 -4.2746339 -47.761936 -3.7954383 69.240105 -10.387343 -5.4012294 -4.8926477 -43.215393
