!Keysight Technologies,P9371A,MY57211172,A.13.10.05
!Date: Monday, March 30, 2026 16:00:24
!Correction: S11(Full 2 Port(1,2)) 
!S1P File: Measurement: S11:
# Hz S  dB   R 50
10000000 0.0060723368 -1.6639128
16490000 0.11681332 -1.8557748
22980000 0.0014177496 -4.338913
29470000 -0.011081585 -5.5917306
35960000 -0.015070274 -6.7858186
42450000 -0.020615947 -7.9839439
48940000 -0.032448906 -9.1765881
55430000 -0.039804108 -10.352447
61920000 -0.049938846 -11.528148
68410000 -0.058592964 -12.705426
74900000 -0.07040903 -13.876775
81390000 -0.080835849 -15.010089
87880000 -0.095619038 -16.145826
94370000 -0.10787957 -17.310469
100860000 -0.1229393 -18.432047
107350000 -0.14151628 -19.586033
113840000 -0.15573274 -20.745117
120330000 -0.17361102 -21.876518
126820000 -0.19366877 -23.061493
133310000 -0.21297422 -24.258608
139800000 -0.23159032 -25.408083
146290000 -0.25324485 -26.602037
152780000 -0.27508804 -27.793369
159270000 -0.30183315 -28.98576
165760000 -0.32755324 -30.115175
172250000 -0.34899023 -31.254072
178740000 -0.36871576 -32.387486
185230000 -0.39135024 -33.514027
191720000 -0.41766289 -34.618767
198210000 -0.44712743 -35.745438
204700000 -0.47569036 -36.824669
211190000 -0.50367725 -37.926231
217680000 -0.5338881 -39.021832
224170000 -0.56895655 -40.134464
230660000 -0.60396826 -41.259468
237150000 -0.63163352 -42.382442
243640000 -0.66964507 -43.513428
250130000 -0.695584 -44.616394
256620000 -0.72837955 -45.75061
263110000 -0.76660478 -46.886181
269600000 -0.80243093 -47.992527
276090000 -0.8358168 -49.056732
282580000 -0.86924082 -50.147018
289070000 -0.89875972 -51.203629
295560000 -0.94261849 -52.227898
302050000 -0.97725409 -53.260418
308540000 -1.0193442 -54.281063
315030000 -1.0578501 -55.312023
321520000 -1.0930119 -56.363235
328010000 -1.1395615 -57.380829
334500000 -1.1826185 -58.41777
340990000 -1.2210695 -59.468441
347480000 -1.2653695 -60.520866
353970000 -1.3086004 -61.58617
360460000 -1.3503581 -62.634651
366950000 -1.3925852 -63.711151
373440000 -1.4345258 -64.743828
379930000 -1.4735104 -65.775177
386420000 -1.5205228 -66.792816
392910000 -1.5613717 -67.787827
399400000 -1.603363 -68.799828
405890000 -1.6487991 -69.784676
412380000 -1.6964153 -70.729462
418870000 -1.7396904 -71.722794
425360000 -1.7841768 -72.6614
431850000 -1.8316439 -73.634102
438340000 -1.882026 -74.619385
444830000 -1.9307778 -75.591286
451320000 -1.9774433 -76.592934
457810000 -2.0219476 -77.561569
464300000 -2.0685294 -78.557259
470790000 -2.1167488 -79.514023
477280000 -2.1645741 -80.470795
483770000 -2.2068226 -81.423134
490260000 -2.2555687 -82.374229
496750000 -2.302212 -83.33506
503240000 -2.352252 -84.224472
509730000 -2.3986709 -85.186104
516220000 -2.4480669 -86.093079
522710000 -2.4919968 -86.989502
529200000 -2.5463448 -87.892052
535690000 -2.595679 -88.8358
542180000 -2.6475677 -89.788628
548670000 -2.6961126 -90.681198
555160000 -2.7459331 -91.578941
561650000 -2.7960675 -92.489113
568140000 -2.8480592 -93.367455
574630000 -2.8933291 -94.295265
581120000 -2.944948 -95.152176
587610000 -2.9968839 -96.037086
594100000 -3.047544 -96.90358
600590000 -3.0963073 -97.770065
607080000 -3.146378 -98.640968
613570000 -3.2000675 -99.496727
620060000 -3.255383 -100.34743
626550000 -3.3077567 -101.20094
633040000 -3.3618133 -102.07531
639530000 -3.4052346 -102.93504
646020000 -3.4616323 -103.84116
652510000 -3.5141704 -104.70025
659000000 -3.5682857 -105.61825
665490000 -3.6092525 -106.45377
671980000 -3.6619871 -107.28912
678470000 -3.709343 -108.12126
684960000 -3.7599425 -108.95932
691450000 -3.8119676 -109.76221
697940000 -3.8636992 -110.58288
704430000 -3.9176042 -111.35303
710920000 -3.9700763 -112.17738
717410000 -4.0225258 -112.98135
723900000 -4.0811281 -113.7692
730390000 -4.1342802 -114.59994
736880000 -4.1874437 -115.42286
743370000 -4.2437806 -116.26078
749860000 -4.298193 -117.12074
756350000 -4.3487673 -117.96782
762840000 -4.4037981 -118.82215
769330000 -4.4521661 -119.6291
775820000 -4.5064597 -120.52782
782310000 -4.5485353 -121.29552
788800000 -4.6033158 -122.0925
795290000 -4.6508965 -122.88762
801780000 -4.694633 -123.63593
808270000 -4.7455707 -124.36604
814760000 -4.7982798 -125.14035
821250000 -4.8496985 -125.91757
827740000 -4.8987103 -126.61015
834230000 -4.9576945 -127.41541
840720000 -5.0157132 -128.21959
847210000 -5.0642223 -128.9951
853700000 -5.1165099 -129.84567
860190000 -5.165802 -130.61078
866680000 -5.220468 -131.41464
873170000 -5.2626262 -132.23306
879660000 -5.313561 -133.02327
886150000 -5.3617229 -133.78838
892640000 -5.4088149 -134.5152
899130000 -5.4554262 -135.28716
905620000 -5.5041637 -135.98059
912110000 -5.5518112 -136.6523
918600000 -5.6035066 -137.32819
925090000 -5.6524634 -138.00027
931580000 -5.7103148 -138.70717
938070000 -5.7648888 -139.40135
944560000 -5.8206925 -140.10559
951050000 -5.8847136 -140.84418
957540000 -5.9429588 -141.60091
964030000 -6.0013237 -142.33492
970520000 -6.0572076 -143.13309
977010000 -6.1109138 -143.85443
983500000 -6.1668429 -144.65312
989990000 -6.2121582 -145.39328
996480000 -6.2609649 -146.12158
1002970000 -6.3180795 -146.89319
1009460000 -6.3619165 -147.60371
1015950000 -6.4040623 -148.29755
1022440000 -6.4581928 -148.99767
1028930000 -6.5108271 -149.659
1035420000 -6.5690513 -150.34059
1041910000 -6.6183381 -151.04877
1048400000 -6.6739759 -151.73683
1054890000 -6.7383938 -152.465
1061380000 -6.7946649 -153.15895
1067870000 -6.8428221 -153.87961
1074360000 -6.8961415 -154.60951
1080850000 -6.9488921 -155.29803
1087340000 -6.9944119 -156.04716
1093830000 -7.0477691 -156.75644
1100320000 -7.0977378 -157.45151
1106810000 -7.1437464 -158.12939
1113300000 -7.1941557 -158.81999
1119790000 -7.2541676 -159.46529
1126280000 -7.3009887 -160.12291
1132770000 -7.3593135 -160.81485
1139260000 -7.4129672 -161.49205
1145750000 -7.477222 -162.14745
1152240000 -7.5359826 -162.84026
1158730000 -7.5929022 -163.55627
1165220000 -7.6501446 -164.24323
1171710000 -7.7052379 -164.96605
1178200000 -7.7644038 -165.67371
1184690000 -7.8058119 -166.36925
1191180000 -7.8560562 -167.08125
1197670000 -7.8956923 -167.74362
1204160000 -7.9477978 -168.42299
1210650000 -7.9989862 -168.98766
1217140000 -8.0364809 -169.5907
1223630000 -8.0934315 -170.2532
1230120000 -8.1459055 -170.73914
1236610000 -8.2042255 -171.37242
1243100000 -8.2775011 -172.03333
1249590000 -8.331687 -172.66342
1256080000 -8.3982897 -173.35756
1262570000 -8.4699297 -174.08908
1269060000 -8.5232944 -174.8219
1275550000 -8.5889091 -175.6409
1282040000 -8.6515827 -176.36867
1288530000 -8.707037 -177.05762
1295020000 -8.7543802 -177.81924
1301510000 -8.8032684 -178.53885
1308000000 -8.8465309 -179.21263
1314490000 -8.8961687 -179.78192
1320980000 -8.9435349 179.64192
1327470000 -8.9912024 179.05144
1333960000 -9.0431852 178.50578
1340450000 -9.088294 177.98639
1346940000 -9.1542168 177.43076
1353430000 -9.2326641 176.82472
1359920000 -9.2976999 176.2379
1366410000 -9.3662195 175.60861
1372900000 -9.4413643 174.9534
1379390000 -9.5003119 174.26706
1385880000 -9.5707912 173.53871
1392370000 -9.625659 172.82968
1398860000 -9.6826496 172.11934
1405350000 -9.7318506 171.43471
1411840000 -9.793047 170.72482
1418330000 -9.829073 170.11026
1424820000 -9.8864737 169.48854
1431310000 -9.9338493 168.87167
1437800000 -9.9932156 168.31496
1444290000 -10.047822 167.71797
1450780000 -10.115542 167.16437
1457270000 -10.182427 166.55173
1463760000 -10.249892 166.01369
1470250000 -10.314183 165.30261
1476740000 -10.376745 164.67754
1483230000 -10.447016 164.03816
1489720000 -10.501554 163.39027
1496210000 -10.565825 162.71695
1502700000 -10.626098 162.01001
1509190000 -10.684618 161.36955
1515680000 -10.743241 160.74986
1522170000 -10.792119 160.10631
1528660000 -10.843426 159.52054
1535150000 -10.911627 158.95714
1541640000 -10.986362 158.40131
1548130000 -11.041126 157.8181
1554620000 -11.123908 157.18152
1561110000 -11.191294 156.64264
1567600000 -11.260483 155.91519
1574090000 -11.344625 155.28172
1580580000 -11.413041 154.6454
1587070000 -11.475315 153.93066
1593560000 -11.524017 153.18796
1600050000 -11.597323 152.46356
1606540000 -11.650087 151.6956
1613030000 -11.695391 151.1268
1619520000 -11.747519 150.42564
1626010000 -11.799114 149.84744
1632500000 -11.853333 149.29591
1638990000 -11.910206 148.81325
1645480000 -11.980073 148.27675
1651970000 -12.047382 147.78229
1658460000 -12.118879 147.22427
1664950000 -12.189036 146.70245
1671440000 -12.285011 146.16507
1677930000 -12.362973 145.45374
1684420000 -12.433043 144.83679
1690910000 -12.516603 144.2298
1697400000 -12.589789 143.49118
1703890000 -12.65661 142.73177
1710380000 -12.731049 142.16188
1716870000 -12.797286 141.44835
1723360000 -12.843454 140.89799
1729850000 -12.909887 140.19594
1736340000 -12.974403 139.62584
1742830000 -13.051239 139.06844
1749320000 -13.112307 138.46289
1755810000 -13.178171 137.93852
1762300000 -13.264025 137.36406
1768790000 -13.34504 136.7533
1775280000 -13.423807 136.1989
1781770000 -13.494205 135.47885
1788260000 -13.571173 134.81653
1794750000 -13.663304 134.15565
1801240000 -13.73538 133.53349
1807730000 -13.788877 132.82007
1814220000 -13.861974 132.27687
1820710000 -13.922454 131.73056
1827200000 -13.995166 131.00473
1833690000 -14.070627 130.48415
1840180000 -14.142086 129.99487
1846670000 -14.225921 129.47763
1853160000 -14.309591 128.87653
1859650000 -14.40079 128.31439
1866140000 -14.511643 127.76343
1872630000 -14.606531 127.16689
1879120000 -14.697901 126.38931
1885610000 -14.804762 125.67783
1892100000 -14.881352 124.85396
1898590000 -14.959414 124.12557
1905080000 -15.031989 123.34938
1911570000 -15.079363 122.62314
1918060000 -15.155815 121.8978
1924550000 -15.212873 121.28387
1931040000 -15.267951 120.78198
1937530000 -15.328177 120.23636
1944020000 -15.402439 119.84309
1950510000 -15.486167 119.49337
1957000000 -15.569902 119.09185
1963490000 -15.67492 118.658
1969980000 -15.797017 118.10062
1976470000 -15.91473 117.60852
1982960000 -16.035587 117.05492
1989450000 -16.149616 116.36238
1995940000 -16.257904 115.5806
2002430000 -16.373764 114.88392
2008920000 -16.486303 114.05518
2015410000 -16.571383 113.17395
2021900000 -16.64131 112.44064
2028390000 -16.740749 111.65382
2034880000 -16.821651 110.9425
2041370000 -16.890444 110.37225
2047860000 -16.967249 109.69975
2054350000 -17.065128 109.14433
2060840000 -17.130928 108.57388
2067330000 -17.238436 108.06598
2073820000 -17.356153 107.42535
2080310000 -17.440338 106.91082
2086800000 -17.565252 106.37233
2093290000 -17.681837 105.8241
2099780000 -17.799337 105.01661
2106270000 -17.926918 104.23128
2112760000 -18.019516 103.56905
2119250000 -18.138964 102.81017
2125740000 -18.244217 102.12205
2132230000 -18.343506 101.31395
2138720000 -18.445261 100.5373
2145210000 -18.557602 100.02586
2151700000 -18.651907 99.226936
2158190000 -18.750072 98.620476
2164680000 -18.900822 97.978836
2171170000 -19.017088 97.297066
2177660000 -19.141926 96.692474
2184150000 -19.261408 95.92189
2190640000 -19.367376 95.116142
2197130000 -19.486792 94.258827
2203620000 -19.618538 93.456696
2210110000 -19.730618 92.719917
2216600000 -19.848391 91.902138
2223090000 -19.937923 91.240936
2229580000 -20.010639 90.466469
2236070000 -20.137024 89.744385
2242560000 -20.248499 89.055565
2249050000 -20.359863 88.647911
2255540000 -20.478292 88.023796
2262030000 -20.629036 87.72554
2268520000 -20.80658 87.109314
2275010000 -20.994068 86.253647
2281500000 -21.134869 85.863243
2287990000 -21.331266 84.856644
2294480000 -21.53299 84.032219
2300970000 -21.691132 83.084442
2307460000 -21.870283 81.863716
2313950000 -21.992268 81.105141
2320440000 -22.124754 79.768608
2326930000 -22.221674 78.833656
2333420000 -22.395266 77.815712
2339910000 -22.461655 76.820824
2346400000 -22.626205 76.218185
2352890000 -22.762928 75.276878
2359380000 -22.920691 74.737717
2365870000 -23.059727 74.05648
2372360000 -23.218311 73.522285
2378850000 -23.466614 72.565208
2385340000 -23.645584 71.86805
2391830000 -23.883936 70.880844
2398320000 -24.101477 69.871124
2404810000 -24.328615 68.393478
2411300000 -24.556992 67.331902
2417790000 -24.771732 65.733932
2424280000 -24.94591 64.62896
2430770000 -25.112537 63.069054
2437260000 -25.225143 61.892464
2443750000 -25.348804 60.347118
2450240000 -25.565533 59.40514
2456730000 -25.722679 58.018646
2463220000 -25.904282 57.032089
2469710000 -26.117292 55.92923
2476200000 -26.345009 55.173199
2482690000 -26.584059 54.287117
2489180000 -26.875509 52.675953
2495670000 -27.146727 51.231148
2502160000 -27.387463 49.490562
2508650000 -27.673931 47.686115
2515140000 -27.880384 45.778545
2521630000 -28.219748 42.893169
2528120000 -28.356588 40.799984
2534610000 -28.574625 38.768101
2541100000 -28.749159 36.103245
2547590000 -28.85136 34.486546
2554080000 -29.091377 31.731413
2560570000 -29.28796 29.823448
2567060000 -29.468761 27.954008
2573550000 -29.681805 25.727144
2580040000 -29.928146 23.950436
2586530000 -30.008911 20.867296
2593020000 -30.266047 18.831816
2599510000 -30.41922 16.124689
2606000000 -30.662916 13.427844
2612490000 -30.772226 10.311177
2618980000 -30.878483 7.120738
2625470000 -30.988342 3.864985
2631960000 -31.133421 0.59241068
2638450000 -31.022831 -2.3290789
2644940000 -31.277174 -4.8672409
2651430000 -31.134695 -7.6204014
2657920000 -31.247089 -11.089586
2664410000 -31.247032 -13.66297
2670900000 -31.344542 -16.665359
2677390000 -31.352055 -19.55328
2683880000 -31.37714 -23.539892
2690370000 -31.412008 -26.748442
2696860000 -31.236145 -30.864662
2703350000 -31.165768 -34.174038
2709840000 -30.982466 -37.398685
2716330000 -30.649965 -40.457996
2722820000 -30.42091 -42.910252
2729310000 -30.220676 -45.415695
2735800000 -29.967018 -46.90659
2742290000 -29.805004 -48.850887
2748780000 -29.610146 -50.368065
2755270000 -29.492308 -51.999859
2761760000 -29.452772 -53.436337
2768250000 -29.358957 -56.139317
2774740000 -29.358974 -57.894672
2781230000 -29.351927 -60.004551
2787720000 -29.16493 -62.486881
2794210000 -29.069433 -65.381775
2800700000 -28.910816 -67.911926
2807190000 -28.724092 -70.401802
2813680000 -28.329201 -72.77356
2820170000 -28.097799 -75.098572
2826660000 -27.767332 -76.494339
2833150000 -27.463995 -78.097298
2839640000 -27.201435 -78.86348
2846130000 -27.013079 -79.935532
2852620000 -26.836927 -80.433403
2859110000 -26.724838 -81.376465
2865600000 -26.555248 -82.438713
2872090000 -26.489868 -83.022705
2878580000 -26.405659 -84.177727
2885070000 -26.277403 -85.452065
2891560000 -26.207697 -86.845795
2898050000 -26.141891 -88.890656
2904540000 -25.974173 -90.741592
2911030000 -25.817524 -92.29229
2917520000 -25.601725 -94.012482
2924010000 -25.395273 -95.455864
2930500000 -25.132612 -96.181236
2936990000 -24.920261 -98.027809
2943480000 -24.710579 -98.87162
2949970000 -24.502712 -99.60302
2956460000 -24.332333 -100.12631
2962950000 -24.151566 -100.62382
2969440000 -24.061092 -101.17191
2975930000 -23.932716 -101.9556
2982420000 -23.830898 -102.78619
2988910000 -23.768276 -103.66601
2995400000 -23.675875 -104.46107
3001890000 -23.54236 -105.56013
3008380000 -23.429058 -106.95045
3014870000 -23.262318 -107.94865
3021360000 -23.198851 -109.40775
3027850000 -23.0362 -110.2003
3034340000 -22.844334 -111.02191
3040830000 -22.701359 -111.56142
3047320000 -22.573067 -112.61907
3053810000 -22.398933 -112.97001
3060300000 -22.276098 -113.83631
3066790000 -22.138765 -114.42907
3073280000 -22.054733 -114.90586
3079770000 -21.980391 -115.68549
3086260000 -21.878616 -116.3526
3092750000 -21.802792 -117.12037
3099240000 -21.688583 -118.09138
3105730000 -21.579689 -118.95486
3112220000 -21.444004 -119.93502
3118710000 -21.300802 -120.82595
3125200000 -21.204378 -121.63958
3131690000 -21.050827 -122.29511
3138180000 -20.912928 -122.73327
3144670000 -20.790991 -123.22015
3151160000 -20.710634 -123.9327
3157650000 -20.587481 -124.00579
3164140000 -20.518162 -124.34452
3170630000 -20.48238 -124.90374
3177120000 -20.419474 -125.50295
3183610000 -20.342682 -125.92499
3190100000 -20.351183 -126.87958
3196590000 -20.307751 -127.81325
3203080000 -20.261311 -128.95964
3209570000 -20.169651 -129.98666
3216060000 -20.073185 -131.09419
3222550000 -19.935171 -131.96407
3229040000 -19.754711 -132.91469
3235530000 -19.65316 -133.59552
3242020000 -19.477863 -134.14021
3248510000 -19.294239 -134.58958
3255000000 -19.16835 -135.01378
3261490000 -19.072994 -135.22015
3267980000 -18.985041 -135.41333
3274470000 -18.907202 -135.577
3280960000 -18.846764 -135.75926
3287450000 -18.810591 -136.00249
3293940000 -18.824348 -136.50044
3300430000 -18.768259 -136.92732
3306920000 -18.766285 -137.81937
3313410000 -18.706636 -138.56628
3319900000 -18.689972 -139.61346
3326390000 -18.598137 -140.38483
3332880000 -18.550083 -141.28087
3339370000 -18.448067 -142.12206
3345860000 -18.345171 -142.91278
3352350000 -18.254648 -143.3537
3358840000 -18.163038 -144.05359
3365330000 -18.057325 -144.47166
3371820000 -17.964308 -145.05063
3378310000 -17.929001 -145.55272
3384800000 -17.866732 -145.9984
3391290000 -17.833195 -146.65041
3397780000 -17.799864 -147.32849
3404270000 -17.759302 -147.74536
3410760000 -17.714222 -148.54314
3417250000 -17.65308 -149.41687
3423740000 -17.578779 -150.33302
3430230000 -17.478632 -151.18883
3436720000 -17.380661 -152.09859
3443210000 -17.287521 -152.84175
3449700000 -17.192995 -153.33885
3456190000 -17.069756 -154.05229
3462680000 -16.978096 -154.38754
3469170000 -16.890308 -154.59286
3475660000 -16.812637 -155.03769
3482150000 -16.750998 -155.34279
3488640000 -16.699095 -155.43295
3495130000 -16.688789 -155.92427
3501620000 -16.64327 -156.46655
3508110000 -16.645412 -156.90984
3514600000 -16.637148 -157.44148
3521090000 -16.600775 -158.32115
3527580000 -16.556786 -158.99126
3534070000 -16.523327 -159.8347
3540560000 -16.452291 -160.47301
3547050000 -16.374542 -161.2805
3553540000 -16.281403 -162.08032
3560030000 -16.220606 -162.77115
3566520000 -16.142195 -163.46997
3573010000 -16.064283 -164.07336
3579500000 -15.991913 -164.61394
3585990000 -15.916982 -165.08153
3592480000 -15.877435 -165.59883
3598970000 -15.80452 -166.11699
3605460000 -15.763747 -166.84143
3611950000 -15.705606 -167.42036
3618440000 -15.657601 -168.20467
3624930000 -15.631238 -168.79034
3631420000 -15.56015 -169.48781
3637910000 -15.513911 -170.10814
3644400000 -15.45612 -170.87334
3650890000 -15.385104 -171.57735
3657380000 -15.331131 -172.12709
3663870000 -15.253421 -172.59412
3670360000 -15.192585 -173.32541
3676850000 -15.122305 -173.95973
3683340000 -15.082284 -174.58775
3689830000 -15.027966 -175.18372
3696320000 -14.999536 -175.82352
3702810000 -14.949806 -176.47792
3709300000 -14.906678 -177.07024
3715790000 -14.857802 -177.72168
3722280000 -14.797706 -178.44243
3728770000 -14.749219 -179.19606
3735260000 -14.676729 -179.7836
3741750000 -14.61739 179.54109
3748240000 -14.550151 178.76768
3754730000 -14.481001 178.31296
3761220000 -14.432064 177.6763
3767710000 -14.392854 177.27542
3774200000 -14.323996 176.70642
3780690000 -14.302623 176.14337
3787180000 -14.256917 175.5547
3793670000 -14.225709 175.01959
3800160000 -14.188363 174.29817
3806650000 -14.179901 173.50136
3813140000 -14.143398 172.75571
3819630000 -14.082022 172.04947
3826120000 -14.050215 171.22908
3832610000 -13.960854 170.39485
3839100000 -13.901085 169.67316
3845590000 -13.834872 168.93488
3852080000 -13.75039 168.36314
3858570000 -13.657019 167.76016
3865060000 -13.604472 167.2728
3871550000 -13.550528 166.88264
3878040000 -13.516442 166.47623
3884530000 -13.459474 165.90477
3891020000 -13.461586 165.41777
3897510000 -13.456074 165.1727
3904000000 -13.451822 164.61357
3910490000 -13.430494 163.8242
3916980000 -13.431162 163.05363
3923470000 -13.423277 162.21225
3929960000 -13.404652 161.27774
3936450000 -13.36033 160.32762
3942940000 -13.308628 159.37283
3949430000 -13.266421 158.48822
3955920000 -13.183353 157.69499
3962410000 -13.112389 157.02512
3968900000 -13.038234 156.29266
3975390000 -12.967049 155.73795
3981880000 -12.904701 155.24811
3988370000 -12.829365 154.80809
3994860000 -12.799797 154.32774
