!Keysight Technologies,P9371A,MY57211172,A.13.10.05
!Date: Monday, March 30, 2026 15:59:42
!Correction: S11(Full 2 Port(1,2)) 
!S1P File: Measurement: S11:
# Hz S  dB   R 50
10000000 0.046836901 178.6451
16490000 -0.013704969 177.46263
22980000 0.036030483 177.51859
29470000 0.038657181 176.94455
35960000 0.029936977 176.26538
42450000 0.025735443 175.65567
48940000 0.029744403 175.00606
55430000 0.029985592 174.34341
61920000 0.026642652 173.70284
68410000 0.017482582 173.07455
74900000 0.015031505 172.38196
81390000 0.017586177 171.72241
87880000 0.013692498 171.03587
94370000 0.012943738 170.28664
100860000 0.010111873 169.61549
107350000 0.011475403 168.94618
113840000 0.0086951517 168.26277
120330000 0.011593193 167.58949
126820000 0.0091056135 166.93002
133310000 0.0073369257 166.29475
139800000 0.0076767625 165.64948
146290000 0.0071536396 164.97946
152780000 0.0034780756 164.37891
159270000 0.0080104414 163.78555
165760000 0.00068101782 163.09846
172250000 0.001709697 162.49918
178740000 0.0056133661 161.81258
185230000 -0.00074624846 161.14844
191720000 2.0060916e-005 160.44188
198210000 0.00086381735 159.78801
204700000 -0.0041150106 159.08865
211190000 -0.004519687 158.39076
217680000 -0.0010202907 157.72855
224170000 -0.00571506 157.07938
230660000 -0.0047679609 156.39375
237150000 -0.010776322 155.72171
243640000 -0.0061938311 155.12579
250130000 -0.0060521727 154.48285
256620000 -0.0037682629 153.86983
263110000 -0.016176116 153.20747
269600000 -0.01506837 152.59857
276090000 -0.011345247 151.90399
282580000 -0.019583728 151.24164
289070000 -0.020879416 150.52324
295560000 -0.0242841 149.90494
302050000 -0.018920116 149.16963
308540000 -0.02790549 148.45355
315030000 -0.023646465 147.72856
321520000 -0.029370423 146.99837
328010000 -0.028049147 146.33762
334500000 -0.027665516 145.61328
340990000 -0.023314297 144.94792
347480000 -0.024964483 144.27592
353970000 -0.035025589 143.61052
360460000 -0.030538904 142.9398
366950000 -0.038855109 142.31747
373440000 -0.036633052 141.69368
379930000 -0.038005333 140.99284
386420000 -0.036583476 140.37538
392910000 -0.042816371 139.68446
399400000 -0.043355774 138.96144
405890000 -0.043309994 138.33185
412380000 -0.050010055 137.57832
418870000 -0.053275403 136.85678
425360000 -0.052372813 136.15578
431850000 -0.054753035 135.43202
438340000 -0.058052447 134.70198
444830000 -0.058875222 134.0603
451320000 -0.062691212 133.33769
457810000 -0.06658531 132.63515
464300000 -0.06676212 131.95573
470790000 -0.068114877 131.31364
477280000 -0.072383605 130.62819
483770000 -0.082709514 129.91673
490260000 -0.083081804 129.23972
496750000 -0.091874927 128.57855
503240000 -0.095077187 127.90031
509730000 -0.10297279 127.14436
516220000 -0.10469274 126.43021
522710000 -0.10420644 125.73907
529200000 -0.10598724 125.06755
535690000 -0.11446918 124.31025
542180000 -0.11745898 123.58865
548670000 -0.11815352 122.86495
555160000 -0.12316182 122.13406
561650000 -0.1318402 121.41405
568140000 -0.13537192 120.75574
574630000 -0.14197244 120.01268
581120000 -0.14830166 119.31786
587610000 -0.15828367 118.627
594100000 -0.16643839 117.87549
600590000 -0.16800855 117.19345
607080000 -0.17652312 116.4511
613570000 -0.18140018 115.71279
620060000 -0.18997851 115.0072
626550000 -0.20279069 114.28274
633040000 -0.19943824 113.55654
639530000 -0.20442283 112.82887
646020000 -0.21335243 112.11288
652510000 -0.23382612 111.41469
659000000 -0.23394977 110.68268
665490000 -0.24266084 110.00914
671980000 -0.24777837 109.25957
678470000 -0.25258496 108.52847
684960000 -0.26644343 107.75885
691450000 -0.27394554 107.01513
697940000 -0.28513524 106.28544
704430000 -0.28825632 105.50187
710920000 -0.30316207 104.71288
717410000 -0.31475532 103.95121
723900000 -0.32228583 103.21748
730390000 -0.33064058 102.41025
736880000 -0.33890113 101.69313
743370000 -0.35179654 100.94038
749860000 -0.36247677 100.22291
756350000 -0.37138751 99.514679
762840000 -0.3748118 98.821457
769330000 -0.38384095 98.152275
775820000 -0.40776566 97.416748
782310000 -0.41202983 96.734215
788800000 -0.41762108 96.078873
795290000 -0.44305846 95.329514
801780000 -0.45159593 94.523285
808270000 -0.46579528 93.791077
814760000 -0.48269153 93.040977
821250000 -0.50033993 92.215347
827740000 -0.50432599 91.435417
834230000 -0.52598405 90.672012
840720000 -0.53787011 89.934135
847210000 -0.5539093 89.118927
853700000 -0.5731805 88.400558
860190000 -0.58053428 87.639053
866680000 -0.5945369 86.954597
873170000 -0.61121917 86.199654
879660000 -0.62752479 85.524223
886150000 -0.64256352 84.80349
892640000 -0.66465312 84.073875
899130000 -0.68591237 83.345955
905620000 -0.70355582 82.533722
912110000 -0.72235358 81.82354
918600000 -0.74386048 80.998741
925090000 -0.7592991 80.24147
931580000 -0.78592873 79.427483
938070000 -0.80260903 78.622589
944560000 -0.81983274 77.767227
951050000 -0.8345663 77.067642
957540000 -0.85979754 76.226875
964030000 -0.87527347 75.509224
970520000 -0.89387113 74.746498
977010000 -0.9129408 73.975822
983500000 -0.93475461 73.221413
989990000 -0.95223367 72.504936
996480000 -0.97703177 71.732307
1002970000 -1.0123267 70.994835
1009460000 -1.0347904 70.232857
1015950000 -1.0550932 69.420868
1022440000 -1.0801287 68.671288
1028930000 -1.1031427 67.91143
1035420000 -1.1296991 67.121071
1041910000 -1.1509008 66.270103
1048400000 -1.1768694 65.494736
1054890000 -1.193738 64.742332
1061380000 -1.2191547 63.956272
1067870000 -1.2404583 63.173794
1074360000 -1.258171 62.390377
1080850000 -1.2850417 61.646919
1087340000 -1.3069116 60.851166
1093830000 -1.3465312 60.10033
1100320000 -1.3720719 59.33667
1106810000 -1.4011978 58.581951
1113300000 -1.4354461 57.843494
1119790000 -1.4717032 56.99379
1126280000 -1.4990579 56.22509
1132770000 -1.53418 55.399593
1139260000 -1.5548956 54.615726
1145750000 -1.5869383 53.851559
1152240000 -1.6209065 53.124054
1158730000 -1.6497388 52.308327
1165220000 -1.6720318 51.569328
1171710000 -1.7027968 50.788216
1178200000 -1.733022 50.055119
1184690000 -1.7653391 49.338791
1191180000 -1.7999952 48.547867
1197670000 -1.8340863 47.773933
1204160000 -1.8749909 47.042641
1210650000 -1.9112673 46.212593
1217140000 -1.9377204 45.436409
1223630000 -1.985544 44.599766
1230120000 -2.0194666 43.807171
1236610000 -2.0572076 42.972088
1243100000 -2.095197 42.140575
1249590000 -2.126529 41.36652
1256080000 -2.1619546 40.567459
1262570000 -2.2005253 39.817257
1269060000 -2.2195165 39.012672
1275550000 -2.2590687 38.275532
1282040000 -2.2901607 37.532082
1288530000 -2.3296428 36.867355
1295020000 -2.3668749 36.117428
1301510000 -2.4088194 35.406857
1308000000 -2.4543591 34.649101
1314490000 -2.4982886 33.93504
1320980000 -2.5452313 33.202904
1327470000 -2.5965149 32.416813
1333960000 -2.639703 31.566908
1340450000 -2.6823034 30.769306
1346940000 -2.7258575 29.966396
1353430000 -2.7641377 29.180607
1359920000 -2.8145018 28.353245
1366410000 -2.8407152 27.569296
1372900000 -2.8829076 26.743391
1379390000 -2.9246342 26.010899
1385880000 -2.9629586 25.250977
1392370000 -3.0088978 24.493711
1398860000 -3.0555797 23.764193
1405350000 -3.0998182 23.042727
1411840000 -3.1471305 22.349382
1418330000 -3.1987305 21.54398
1424820000 -3.2404375 20.849493
1431310000 -3.2990081 20.060654
1437800000 -3.3453772 19.321747
1444290000 -3.3992717 18.526199
1450780000 -3.4466653 17.753977
1457270000 -3.4956768 16.970858
1463760000 -3.5329781 16.19503
1470250000 -3.5859013 15.41843
1476740000 -3.6353018 14.667693
1483230000 -3.6778169 13.936612
1489720000 -3.7265301 13.224977
1496210000 -3.7710049 12.450978
1502700000 -3.8309166 11.763927
1509190000 -3.8706422 11.054821
1515680000 -3.9373791 10.35971
1522170000 -3.9905443 9.6334505
1528660000 -4.0451612 8.8373232
1535150000 -4.0972137 8.1046238
1541640000 -4.1578469 7.3533921
1548130000 -4.2080956 6.5721641
1554620000 -4.256495 5.8049045
1561110000 -4.3126459 5.0632582
1567600000 -4.3640242 4.2769265
1574090000 -4.4132466 3.5617301
1580580000 -4.4615903 2.8326066
1587070000 -4.5179319 2.1227651
1593560000 -4.5661774 1.4136701
1600050000 -4.6249919 0.77699184
1606540000 -4.6752105 0.083384342
1613030000 -4.7323518 -0.59069246
1619520000 -4.8095369 -1.2626289
1626010000 -4.8677349 -1.9894735
1632500000 -4.9256368 -2.6995823
1638990000 -4.9895129 -3.4697046
1645480000 -5.0540528 -4.1811757
1651970000 -5.1227555 -4.9523816
1658460000 -5.177835 -5.69415
1664950000 -5.2359824 -6.4417377
1671440000 -5.2939577 -7.2258358
1677930000 -5.346571 -7.9204359
1684420000 -5.4121466 -8.6394405
1690910000 -5.4569106 -9.3724203
1697400000 -5.5259242 -10.030217
1703890000 -5.5882144 -10.757292
1710380000 -5.6444116 -11.384504
1716870000 -5.7087808 -12.050165
1723360000 -5.7859859 -12.76057
1729850000 -5.8492165 -13.390706
1736340000 -5.9163289 -14.111173
1742830000 -5.9783568 -14.815283
1749320000 -6.0474234 -15.488079
1755810000 -6.1115775 -16.228746
1762300000 -6.1768045 -16.941486
1768790000 -6.2408156 -17.632381
1775280000 -6.3007183 -18.34831
1781770000 -6.3778939 -19.009043
1788260000 -6.4398513 -19.668079
1794750000 -6.5085001 -20.301636
1801240000 -6.5739183 -21.00729
1807730000 -6.6501203 -21.705116
1814220000 -6.7101798 -22.377708
1820710000 -6.789155 -23.05176
1827200000 -6.8607359 -23.715467
1833690000 -6.9487987 -24.43195
1840180000 -7.0221157 -25.106922
1846670000 -7.0927572 -25.849876
1853160000 -7.1653957 -26.514225
1859650000 -7.2258725 -27.293781
1866140000 -7.2943535 -27.960613
1872630000 -7.3567719 -28.608299
1879120000 -7.4238195 -29.220608
1885610000 -7.4873214 -29.888491
1892100000 -7.5606518 -30.523293
1898590000 -7.6378603 -31.066761
1905080000 -7.707375 -31.651943
1911570000 -7.7997766 -32.251339
1918060000 -7.8758564 -32.802963
1924550000 -7.965807 -33.339851
1931040000 -8.0631037 -33.981373
1937530000 -8.1481152 -34.69038
1944020000 -8.2410164 -35.359207
1950510000 -8.317378 -36.02095
1957000000 -8.4046211 -36.736336
1963490000 -8.4852648 -37.409523
1969980000 -8.5596609 -38.124477
1976470000 -8.6362505 -38.846558
1982960000 -8.7095594 -39.461761
1989450000 -8.7771568 -40.135624
1995940000 -8.8509779 -40.69944
2002430000 -8.9315739 -41.304184
2008920000 -8.9967527 -41.854877
2015410000 -9.0790129 -42.315052
2021900000 -9.1659431 -42.872406
2028390000 -9.2543907 -43.395779
2034880000 -9.3481283 -43.930824
2041370000 -9.4364338 -44.473225
2047860000 -9.5314169 -45.06229
2054350000 -9.6156683 -45.64365
2060840000 -9.7069883 -46.303871
2067330000 -9.8000383 -46.880699
2073820000 -9.894413 -47.41993
2080310000 -9.9755945 -48.053703
2086800000 -10.060095 -48.625637
2093290000 -10.142803 -49.214432
2099780000 -10.228109 -49.780388
2106270000 -10.30836 -50.254639
2112760000 -10.386792 -50.769485
2119250000 -10.477098 -51.281292
2125740000 -10.567518 -51.739738
2132230000 -10.652424 -52.242016
2138720000 -10.750515 -52.718735
2145210000 -10.839146 -53.182468
2151700000 -10.924067 -53.730339
2158190000 -11.016719 -54.259144
2164680000 -11.107306 -54.716225
2171170000 -11.191109 -55.15147
2177660000 -11.275237 -55.654854
2184150000 -11.367248 -56.162231
2190640000 -11.453094 -56.573437
2197130000 -11.542866 -57.036007
2203620000 -11.62614 -57.336426
2210110000 -11.730227 -57.918003
2216600000 -11.814653 -58.155235
2223090000 -11.924568 -58.636539
2229580000 -12.014803 -59.098129
2236070000 -12.118903 -59.634499
2242560000 -12.223272 -60.119675
2249050000 -12.315948 -60.657005
2255540000 -12.401966 -61.133533
2262030000 -12.503966 -61.700623
2268520000 -12.586813 -62.349171
2275010000 -12.645104 -62.776127
2281500000 -12.729504 -63.375126
2287990000 -12.798429 -63.840111
2294480000 -12.873694 -64.298859
2300970000 -12.948813 -64.627449
2307460000 -13.026886 -64.916916
2313950000 -13.117315 -65.309784
2320440000 -13.211021 -65.658356
2326930000 -13.307627 -65.976357
2333420000 -13.407723 -66.399834
2339910000 -13.518358 -66.75631
2346400000 -13.613959 -67.195374
2352890000 -13.724219 -67.565674
2359380000 -13.833596 -68.180191
2365870000 -13.94255 -68.68232
2372360000 -14.051946 -69.191299
2378850000 -14.131428 -69.729225
2385340000 -14.23134 -70.267105
2391830000 -14.30879 -70.679924
2398320000 -14.396969 -71.204506
2404810000 -14.479975 -71.648026
2411300000 -14.555933 -71.980423
2417790000 -14.646941 -72.325951
2424280000 -14.750751 -72.666687
2430770000 -14.849388 -72.863319
2437260000 -14.972709 -73.219063
2443750000 -15.08866 -73.409546
2450240000 -15.209053 -73.759026
2456730000 -15.34174 -74.073837
2463220000 -15.486882 -74.507492
2469710000 -15.590479 -74.930626
2476200000 -15.728514 -75.358971
2482690000 -15.845755 -75.920425
2489180000 -15.952518 -76.282471
2495670000 -16.05298 -76.723526
2502160000 -16.163006 -77.134697
2508650000 -16.270561 -77.525993
2515140000 -16.375347 -77.840141
2521630000 -16.454321 -78.054314
2528120000 -16.571169 -78.259048
2534610000 -16.693848 -78.381645
2541100000 -16.825993 -78.515671
2547590000 -16.962528 -78.460884
2554080000 -17.083954 -78.680962
2560570000 -17.242733 -78.96064
2567060000 -17.387415 -79.109894
2573550000 -17.530418 -79.204941
2580040000 -17.673878 -79.530617
2586530000 -17.80876 -79.642075
2593020000 -17.972382 -79.938057
2599510000 -18.094934 -80.046379
2606000000 -18.239244 -80.288109
2612490000 -18.364708 -80.376877
2618980000 -18.486387 -80.504501
2625470000 -18.630398 -80.571815
2631960000 -18.755878 -80.576866
2638450000 -18.899923 -80.340485
2644940000 -19.030016 -80.438698
2651430000 -19.188566 -80.229279
2657920000 -19.330534 -80.160065
2664410000 -19.493452 -80.048515
2670900000 -19.631037 -80.035568
2677390000 -19.811308 -79.93383
2683880000 -19.915359 -79.926208
2690370000 -20.061903 -79.833206
2696860000 -20.204777 -79.675354
2703350000 -20.315313 -79.421326
2709840000 -20.424482 -79.428871
2716330000 -20.555922 -78.753738
2722820000 -20.659187 -78.310646
2729310000 -20.776396 -77.757568
2735800000 -20.924566 -77.174332
2742290000 -21.044338 -76.460106
2748780000 -21.22164 -75.649445
2755270000 -21.368452 -75.179512
2761760000 -21.56712 -74.5168
2768250000 -21.722179 -74.027664
2774740000 -21.892138 -73.21769
2781230000 -22.094603 -72.807068
2787720000 -22.190523 -72.408173
2794210000 -22.356863 -72.043182
2800700000 -22.475786 -71.654434
2807190000 -22.595444 -71.291313
2813680000 -22.632208 -70.763557
2820170000 -22.693104 -70.183449
2826660000 -22.739412 -69.165253
2833150000 -22.729805 -68.355469
2839640000 -22.780535 -67.287498
2846130000 -22.817486 -66.02729
2852620000 -22.88665 -64.649597
2859110000 -22.954195 -63.144081
2865600000 -23.030016 -61.955894
2872090000 -23.097206 -60.428024
2878580000 -23.148737 -58.892323
2885070000 -23.210485 -57.791767
2891560000 -23.336731 -56.560062
2898050000 -23.463505 -55.676174
2904540000 -23.508759 -54.804981
2911030000 -23.499989 -54.132851
2917520000 -23.550514 -53.551521
2924010000 -23.522873 -52.956909
2930500000 -23.484028 -51.834221
2936990000 -23.43013 -51.347233
2943480000 -23.4111 -50.730751
2949970000 -23.277025 -49.527176
2956460000 -23.209038 -48.672676
2962950000 -23.150513 -47.622543
2969440000 -23.017534 -46.424599
2975930000 -22.937757 -45.475426
2982420000 -22.911726 -44.274784
2988910000 -22.8363 -43.108154
2995400000 -22.791624 -42.072247
3001890000 -22.730804 -41.523647
3008380000 -22.680059 -40.691525
3014870000 -22.67622 -40.17794
3021360000 -22.570536 -39.502716
3027850000 -22.517773 -39.062317
3034340000 -22.384958 -38.827518
3040830000 -22.262329 -38.258801
3047320000 -22.131716 -37.734436
3053810000 -21.98642 -37.234978
3060300000 -21.881916 -37.056248
3066790000 -21.742708 -36.535355
3073280000 -21.590759 -35.613075
3079770000 -21.500837 -35.354923
3086260000 -21.415112 -34.603241
3092750000 -21.282818 -34.29697
3099240000 -21.206385 -33.953423
3105730000 -21.090221 -33.483887
3112220000 -21.014963 -33.304649
3118710000 -20.930344 -33.233543
3125200000 -20.825087 -33.187862
3131690000 -20.718313 -33.234375
3138180000 -20.573961 -33.244709
3144670000 -20.451025 -33.284634
3151160000 -20.336142 -33.2729
3157650000 -20.143089 -33.248001
3164140000 -20.001629 -32.815552
3170630000 -19.861549 -32.751118
3177120000 -19.735514 -32.465412
3183610000 -19.609989 -32.388966
3190100000 -19.540834 -31.95126
3196590000 -19.448711 -31.555058
3203080000 -19.428278 -31.608879
3209570000 -19.364374 -31.655365
3216060000 -19.292824 -31.713142
3222550000 -19.227943 -32.064384
3229040000 -19.192141 -32.744514
3235530000 -19.08663 -33.04681
3242020000 -18.964582 -33.607037
3248510000 -18.858814 -34.086124
3255000000 -18.706038 -34.648602
3261490000 -18.569582 -35.09655
3267980000 -18.417631 -35.374874
3274470000 -18.265316 -35.529072
3280960000 -18.099487 -35.664314
3287450000 -17.9576 -35.72324
3293940000 -17.84868 -35.41795
3300430000 -17.73893 -35.579296
3306920000 -17.646267 -35.368637
3313410000 -17.605719 -35.485752
3319900000 -17.541302 -35.366314
3326390000 -17.481358 -35.52356
3332880000 -17.429211 -35.812878
3339370000 -17.378946 -36.271202
3345860000 -17.293102 -36.824627
3352350000 -17.228579 -37.271839
3358840000 -17.148476 -37.676842
3365330000 -17.050243 -38.221432
3371820000 -16.94706 -38.722897
3378310000 -16.831312 -38.899048
3384800000 -16.747284 -39.400242
3391290000 -16.66021 -39.47485
3397780000 -16.579037 -39.627865
3404270000 -16.469881 -39.914268
3410760000 -16.416264 -40.017216
3417250000 -16.357449 -40.244305
3423740000 -16.334869 -40.788471
3430230000 -16.285519 -41.094212
3436720000 -16.263689 -41.61438
3443210000 -16.212994 -42.408222
3449700000 -16.151695 -42.866478
3456190000 -16.087364 -43.528454
3462680000 -16.001535 -44.344772
3469170000 -15.898438 -44.935265
3475660000 -15.803098 -45.305599
3482150000 -15.698809 -45.795937
3488640000 -15.56388 -46.388836
3495130000 -15.470668 -46.582088
3501620000 -15.360439 -46.967785
3508110000 -15.286035 -47.188656
3514600000 -15.199572 -47.493912
3521090000 -15.146798 -47.696953
3527580000 -15.098619 -47.928181
3534070000 -15.056487 -48.338715
3540560000 -15.006053 -48.725903
3547050000 -14.970527 -49.05938
3553540000 -14.939276 -49.726917
3560030000 -14.883742 -50.325279
3566520000 -14.853918 -50.809494
3573010000 -14.787975 -51.427101
3579500000 -14.739293 -51.981106
3585990000 -14.687048 -52.609985
3592480000 -14.603979 -53.092285
3598970000 -14.548302 -53.61301
3605460000 -14.491629 -54.00692
3611950000 -14.431209 -54.62561
3618440000 -14.382822 -55.005775
3624930000 -14.335743 -55.48101
3631420000 -14.280726 -55.877529
3637910000 -14.24937 -56.478405
3644400000 -14.208572 -56.919415
3650890000 -14.160177 -57.484558
3657380000 -14.12296 -58.004978
3663870000 -14.052777 -58.674938
3670360000 -14.006505 -59.116272
3676850000 -13.972167 -59.873993
3683340000 -13.934454 -60.385612
3689830000 -13.881631 -60.888126
3696320000 -13.837284 -61.381783
3702810000 -13.784191 -61.850212
3709300000 -13.761964 -62.40683
3715790000 -13.715958 -63.012688
3722280000 -13.697269 -63.563606
3728770000 -13.656581 -64.131958
3735260000 -13.628374 -64.955139
3741750000 -13.586398 -65.624184
3748240000 -13.551238 -66.281441
3754730000 -13.526628 -66.871063
3761220000 -13.45778 -67.638985
3767710000 -13.382218 -68.224739
3774200000 -13.348902 -68.879372
3780690000 -13.278756 -69.421158
3787180000 -13.219609 -69.951195
3793670000 -13.182574 -70.482918
3800160000 -13.145638 -70.849243
3806650000 -13.119059 -71.295937
3813140000 -13.08667 -71.83461
3819630000 -13.068032 -72.393379
3826120000 -13.049726 -72.821022
3832610000 -13.053306 -73.549362
3839100000 -13.027626 -74.188293
3845590000 -13.032715 -74.956131
3852080000 -13.011371 -75.786957
3858570000 -12.966692 -76.599884
3865060000 -12.935551 -77.338478
3871550000 -12.884461 -78.277046
3878040000 -12.837505 -78.850578
3884530000 -12.768618 -79.583748
3891020000 -12.726577 -80.164139
3897510000 -12.65451 -80.709549
3904000000 -12.594179 -81.167526
3910490000 -12.580799 -81.530777
3916980000 -12.546081 -82.025826
3923470000 -12.532961 -82.600342
3929960000 -12.53655 -83.026939
3936450000 -12.555286 -83.496567
3942940000 -12.56265 -84.258102
3949430000 -12.565016 -84.917175
3955920000 -12.571587 -85.802437
3962410000 -12.556839 -86.546707
