!Keysight Technologies,P9371A,MY57211172,A.13.10.05
!Date: Monday, March 30, 2026 16:02:16
!Correction: S11(Full 2 Port(1,2)) 
!S1P File: Measurement: S11:
# Hz S  dB   R 50
10000000 0.0062132026 -1.6326104
16490000 0.11424259 -1.7916632
22980000 0.0025623534 -4.221118
29470000 -0.0079734549 -5.4801655
35960000 -0.015966823 -6.6357226
42450000 -0.018435057 -7.8097825
48940000 -0.03198646 -8.9602776
55430000 -0.040028404 -10.103365
61920000 -0.050392088 -11.251574
68410000 -0.061812069 -12.39737
74900000 -0.070363343 -13.533689
81390000 -0.083967045 -14.677061
87880000 -0.098280229 -15.775154
94370000 -0.10976446 -16.916105
100860000 -0.1248448 -17.999704
107350000 -0.14506601 -19.131094
113840000 -0.15787293 -20.284052
120330000 -0.17803453 -21.384346
126820000 -0.19828734 -22.539223
133310000 -0.21583736 -23.708849
139800000 -0.23417313 -24.807322
146290000 -0.25760075 -26.002993
152780000 -0.2806921 -27.143652
159270000 -0.30447152 -28.305777
165760000 -0.32925525 -29.416105
172250000 -0.35404241 -30.493599
178740000 -0.37359065 -31.598392
185230000 -0.39653149 -32.700108
191720000 -0.42380676 -33.76376
198210000 -0.45294666 -34.850052
204700000 -0.48489639 -35.893246
211190000 -0.50732863 -36.961224
217680000 -0.53859019 -38.036045
224170000 -0.57409346 -39.099628
230660000 -0.61003584 -40.204094
237150000 -0.63843209 -41.285202
243640000 -0.67698067 -42.389889
250130000 -0.70369107 -43.479191
256620000 -0.73683554 -44.582016
263110000 -0.76906264 -45.69582
269600000 -0.80605412 -46.76469
276090000 -0.8400597 -47.765987
282580000 -0.87027562 -48.838558
289070000 -0.90244812 -49.875973
295560000 -0.94106644 -50.839851
302050000 -0.9759745 -51.822517
308540000 -1.0182905 -52.81134
315030000 -1.0552571 -53.805328
321520000 -1.0903158 -54.779102
328010000 -1.1329254 -55.75333
334500000 -1.1758738 -56.738804
340990000 -1.2130598 -57.743698
347480000 -1.2579962 -58.74197
353970000 -1.296389 -59.765903
360460000 -1.3391867 -60.793064
366950000 -1.3801004 -61.812866
373440000 -1.419547 -62.832481
379930000 -1.458267 -63.820244
386420000 -1.5044472 -64.792641
392910000 -1.5409671 -65.75985
399400000 -1.5829648 -66.725975
405890000 -1.6248274 -67.68187
412380000 -1.6707969 -68.584656
418870000 -1.7103943 -69.53434
425360000 -1.7526492 -70.435631
431850000 -1.8006862 -71.371475
438340000 -1.8441246 -72.303551
444830000 -1.8916774 -73.230507
451320000 -1.9330394 -74.182289
457810000 -1.9746572 -75.099617
464300000 -2.0201011 -76.07058
470790000 -2.0622537 -77.006691
477280000 -2.1093037 -77.941872
483770000 -2.1486881 -78.890282
490260000 -2.1904118 -79.785484
496750000 -2.2359424 -80.706215
503240000 -2.2819304 -81.574638
509730000 -2.3211937 -82.496025
516220000 -2.3675976 -83.381302
522710000 -2.4078074 -84.214882
529200000 -2.4569438 -85.093788
535690000 -2.5022171 -85.966049
542180000 -2.5485075 -86.852516
548670000 -2.5930014 -87.700249
555160000 -2.6373694 -88.561722
561650000 -2.6830487 -89.433395
568140000 -2.7304211 -90.278915
574630000 -2.7713997 -91.143059
581120000 -2.8129456 -91.972565
587610000 -2.8606939 -92.850784
594100000 -2.9057298 -93.682922
600590000 -2.9518044 -94.517708
607080000 -2.9955773 -95.341774
613570000 -3.0422564 -96.18512
620060000 -3.0930176 -97.011993
626550000 -3.1355143 -97.856689
633040000 -3.1824024 -98.681358
639530000 -3.2239377 -99.513084
646020000 -3.2644587 -100.38371
652510000 -3.3138359 -101.22635
659000000 -3.3533068 -102.06416
665490000 -3.3946738 -102.87355
671980000 -3.4317586 -103.67487
678470000 -3.4785049 -104.45293
684960000 -3.5190198 -105.26445
691450000 -3.5659881 -106.01989
697940000 -3.6033933 -106.77826
704430000 -3.6515741 -107.53528
710920000 -3.6946547 -108.30151
717410000 -3.7427089 -109.06799
723900000 -3.7885861 -109.83954
730390000 -3.8328307 -110.637
736880000 -3.8760056 -111.41563
743370000 -3.9231474 -112.21987
749860000 -3.9720294 -113.06432
756350000 -4.010323 -113.89706
762840000 -4.0527921 -114.70052
769330000 -4.0945282 -115.505
775820000 -4.1382518 -116.35754
782310000 -4.1715832 -117.12552
788800000 -4.2154827 -117.89446
795290000 -4.250617 -118.67459
801780000 -4.286654 -119.4169
808270000 -4.3226838 -120.1015
814760000 -4.3647037 -120.83775
821250000 -4.4047546 -121.60623
827740000 -4.4425168 -122.27197
834230000 -4.4843616 -123.05056
840720000 -4.5326862 -123.82204
847210000 -4.5678792 -124.57005
853700000 -4.6087923 -125.35349
860190000 -4.6461706 -126.13619
866680000 -4.6864161 -126.90031
873170000 -4.7206216 -127.69584
879660000 -4.7612286 -128.46158
886150000 -4.7911453 -129.16397
892640000 -4.8261452 -129.95386
899130000 -4.8578329 -130.66805
905620000 -4.8933992 -131.3707
912110000 -4.9270191 -132.04498
918600000 -4.9693575 -132.70508
925090000 -5.0030665 -133.37021
931580000 -5.0464249 -134.05692
938070000 -5.0823488 -134.71571
944560000 -5.1162758 -135.41957
951050000 -5.1673303 -136.12357
957540000 -5.2110744 -136.86311
964030000 -5.2556787 -137.58176
970520000 -5.2954769 -138.34814
977010000 -5.3359137 -139.0757
983500000 -5.3723383 -139.83817
989990000 -5.4077935 -140.56595
996480000 -5.4439096 -141.29341
1002970000 -5.4814487 -142.04001
1009460000 -5.5115032 -142.78424
1015950000 -5.5377998 -143.45287
1022440000 -5.5724158 -144.18887
1028930000 -5.6095037 -144.86322
1035420000 -5.6452546 -145.56902
1041910000 -5.6749396 -146.30257
1048400000 -5.7127624 -147.00078
1054890000 -5.7524462 -147.70128
1061380000 -5.7888799 -148.43176
1067870000 -5.8236656 -149.10979
1074360000 -5.8509207 -149.84508
1080850000 -5.8847466 -150.48351
1087340000 -5.9157815 -151.22755
1093830000 -5.9447851 -151.94873
1100320000 -5.9721689 -152.64063
1106810000 -6.0075741 -153.32838
1113300000 -6.0358272 -153.99725
1119790000 -6.0695958 -154.67273
1126280000 -6.0988688 -155.312
1132770000 -6.1318207 -156.02145
1139260000 -6.1677809 -156.6936
1145750000 -6.2090621 -157.39024
1152240000 -6.2418413 -158.07921
1158730000 -6.2778802 -158.76631
1165220000 -6.3059397 -159.48352
1171710000 -6.3459144 -160.22092
1178200000 -6.3780565 -160.91281
1184690000 -6.3958464 -161.61119
1191180000 -6.4297833 -162.32111
1197670000 -6.447464 -162.99217
1204160000 -6.4727607 -163.66577
1210650000 -6.4950309 -164.23254
1217140000 -6.5154982 -164.85249
1223630000 -6.5458784 -165.51735
1230120000 -6.5701509 -166.0621
1236610000 -6.6030526 -166.66373
1243100000 -6.6451287 -167.32896
1249590000 -6.675662 -167.95021
1256080000 -6.7156978 -168.67163
1262570000 -6.7572565 -169.40764
1269060000 -6.7866721 -170.1245
1275550000 -6.8292642 -170.93822
1282040000 -6.8654642 -171.6937
1288530000 -6.8952508 -172.41989
1295020000 -6.9198112 -173.16075
1301510000 -6.9417238 -173.92122
1308000000 -6.9624176 -174.6266
1314490000 -6.9813609 -175.25259
1320980000 -7.0040317 -175.87688
1327470000 -7.0268478 -176.49037
1333960000 -7.0395465 -177.0899
1340450000 -7.059329 -177.63542
1346940000 -7.0952587 -178.24648
1353430000 -7.1307039 -178.875
1359920000 -7.1670418 -179.48384
1366410000 -7.2064052 179.90771
1372900000 -7.2414722 179.2074
1379390000 -7.2716045 178.54059
1385880000 -7.3096671 177.79785
1392370000 -7.3344188 177.10634
1398860000 -7.3595929 176.37865
1405350000 -7.3849645 175.66223
1411840000 -7.4101286 174.9651
1418330000 -7.4275217 174.27283
1424820000 -7.4445577 173.60938
1431310000 -7.4684548 172.93687
1437800000 -7.4849405 172.29219
1444290000 -7.5016098 171.64246
1450780000 -7.5337911 171.03099
1457270000 -7.5592756 170.37924
1463760000 -7.5855837 169.80498
1470250000 -7.6147647 169.08485
1476740000 -7.6420574 168.41267
1483230000 -7.6654892 167.80841
1489720000 -7.6863503 167.07913
1496210000 -7.7081089 166.43495
1502700000 -7.7275057 165.68147
1509190000 -7.749495 165.0524
1515680000 -7.7639251 164.37093
1522170000 -7.781971 163.73558
1528660000 -7.7968283 163.11693
1535150000 -7.8246999 162.50008
1541640000 -7.8505011 161.87906
1548130000 -7.8758478 161.28275
1554620000 -7.9102387 160.64949
1561110000 -7.9367166 159.99274
1567600000 -7.967484 159.29538
1574090000 -7.9975619 158.60191
1580580000 -8.0311394 157.93008
1587070000 -8.0540094 157.18443
1593560000 -8.0675507 156.45634
1600050000 -8.0967979 155.74234
1606540000 -8.1078091 155.00444
1613030000 -8.122242 154.34045
1619520000 -8.131012 153.60242
1626010000 -8.1447344 152.95695
1632500000 -8.157032 152.32764
1638990000 -8.1661348 151.78995
1645480000 -8.1940775 151.13065
1651970000 -8.2134333 150.57622
1658460000 -8.2352533 149.98091
1664950000 -8.2581148 149.38406
1671440000 -8.2925892 148.7556
1677930000 -8.3221455 148.07672
1684420000 -8.3466454 147.42993
1690910000 -8.3734789 146.76303
1697400000 -8.3981848 146.04628
1703890000 -8.415906 145.3356
1710380000 -8.4435101 144.68726
1716870000 -8.4624329 143.95724
1723360000 -8.4691248 143.28413
1729850000 -8.4876232 142.60541
1736340000 -8.5054026 141.91542
1742830000 -8.5217152 141.33273
1749320000 -8.5366964 140.70314
1755810000 -8.552351 140.07048
1762300000 -8.5754986 139.49699
1768790000 -8.5912943 138.86674
1775280000 -8.60987 138.22118
1781770000 -8.6355963 137.53114
1788260000 -8.6439323 136.81808
1794750000 -8.6712065 136.22385
1801240000 -8.684679 135.55142
1807730000 -8.6929989 134.91132
1814220000 -8.7120028 134.26016
1820710000 -8.7202349 133.6118
1827200000 -8.7347813 132.95808
1833690000 -8.7473288 132.2975
1840180000 -8.7587967 131.73265
1846670000 -8.768981 131.17191
1853160000 -8.7840195 130.49399
1859650000 -8.8088245 129.92023
1866140000 -8.8268738 129.28123
1872630000 -8.8521576 128.65674
1879120000 -8.8725796 127.99155
1885610000 -8.8957071 127.29183
1892100000 -8.9088516 126.5806
1898590000 -8.9285469 125.92779
1905080000 -8.9393778 125.25025
1911570000 -8.9441557 124.55087
1918060000 -8.9626064 123.88177
1924550000 -8.9681997 123.24171
1931040000 -8.9726744 122.61754
1937530000 -8.9846573 121.99129
1944020000 -8.9956551 121.40749
1950510000 -9.0165548 120.91298
1957000000 -9.0233936 120.36192
1963490000 -9.0464268 119.75267
1969980000 -9.0660906 119.14406
1976470000 -9.092617 118.51514
1982960000 -9.1144495 117.89262
1989450000 -9.136302 117.23785
1995940000 -9.1508255 116.52048
2002430000 -9.171937 115.86887
2008920000 -9.1927843 115.15253
2015410000 -9.2049475 114.51123
2021900000 -9.1982784 113.82266
2028390000 -9.2169771 113.15487
2034880000 -9.2299252 112.5597
2041370000 -9.2352924 111.92526
2047860000 -9.2398577 111.29511
2054350000 -9.255909 110.69987
2060840000 -9.265152 110.09334
2067330000 -9.2722988 109.47714
2073820000 -9.2849045 108.79443
2080310000 -9.3028746 108.16757
2086800000 -9.310545 107.60796
2093290000 -9.3354664 106.96977
2099780000 -9.3397274 106.2626
2106270000 -9.3645468 105.51817
2112760000 -9.3625422 104.924
2119250000 -9.3725357 104.24228
2125740000 -9.3820171 103.58143
2132230000 -9.3895531 102.8998
2138720000 -9.3923426 102.2037
2145210000 -9.4024162 101.61791
2151700000 -9.402277 100.9636
2158190000 -9.4061499 100.33047
2164680000 -9.4155045 99.68264
2171170000 -9.4322777 99.020897
2177660000 -9.4345112 98.462204
2184150000 -9.4302645 97.778519
2190640000 -9.4356527 97.12455
2197130000 -9.4361658 96.415375
2203620000 -9.4430847 95.848694
2210110000 -9.4484272 95.17453
2216600000 -9.4485216 94.560509
2223090000 -9.4502296 93.929825
2229580000 -9.4470119 93.297409
2236070000 -9.4502516 92.657906
2242560000 -9.4547977 92.068253
2249050000 -9.4520111 91.50605
2255540000 -9.4550886 90.976089
2262030000 -9.4588213 90.420448
2268520000 -9.4776859 89.833588
2275010000 -9.4953146 89.135666
2281500000 -9.4968405 88.596191
2287990000 -9.5087175 87.951523
2294480000 -9.5264034 87.260674
2300970000 -9.5368042 86.507935
2307460000 -9.5377417 85.833954
2313950000 -9.5350418 85.163277
2320440000 -9.5458202 84.571053
2326930000 -9.5402641 83.848465
2333420000 -9.536026 83.242699
2339910000 -9.5316763 82.594826
2346400000 -9.5366583 82.004349
2352890000 -9.5404377 81.429329
2359380000 -9.5469255 80.880783
2365870000 -9.5442324 80.189247
2372360000 -9.5543585 79.637123
2378850000 -9.5664387 78.976707
2385340000 -9.570159 78.368813
2391830000 -9.5807714 77.671593
2398320000 -9.5904293 76.984055
2404810000 -9.6041212 76.340263
2411300000 -9.5917273 75.60952
2417790000 -9.6082497 74.904099
2424280000 -9.5960197 74.203377
2430770000 -9.5929794 73.559212
2437260000 -9.5734987 72.800583
2443750000 -9.5672874 72.212921
2450240000 -9.5543079 71.61908
2456730000 -9.5529499 70.991737
2463220000 -9.5541973 70.411331
2469710000 -9.5579557 69.843224
2476200000 -9.5648079 69.352921
2482690000 -9.5795059 68.722717
2489180000 -9.5876818 68.027328
2495670000 -9.5999842 67.424782
2502160000 -9.6024075 66.715988
2508650000 -9.615037 66.051826
2515140000 -9.6175241 65.294525
2521630000 -9.6320934 64.446739
2528120000 -9.6297607 63.784065
2534610000 -9.6271763 63.009781
2541100000 -9.6229086 62.293442
2547590000 -9.6078949 61.619019
2554080000 -9.6093855 60.914215
2560570000 -9.6089554 60.208427
2567060000 -9.5922346 59.587677
2573550000 -9.5829105 58.994659
2580040000 -9.593297 58.314709
2586530000 -9.5939484 57.610897
2593020000 -9.5912848 57.078373
2599510000 -9.5810785 56.38456
2606000000 -9.5844355 55.753006
2612490000 -9.5849257 55.099617
2618980000 -9.5825329 54.439499
2625470000 -9.5842381 53.690891
2631960000 -9.5800247 53.051006
2638450000 -9.5683289 52.346333
2644940000 -9.5682659 51.730957
2651430000 -9.566184 51.07568
2657920000 -9.5663881 50.364891
2664410000 -9.5633755 49.710434
2670900000 -9.5571041 49.126553
2677390000 -9.5591497 48.464371
2683880000 -9.5677338 47.778721
2690370000 -9.5680733 47.158878
2696860000 -9.5673857 46.424866
2703350000 -9.5580912 45.745377
2709840000 -9.5713997 45.038475
2716330000 -9.5619965 44.248337
2722820000 -9.5472383 43.540493
2729310000 -9.5473089 42.865932
2735800000 -9.5165482 42.158875
2742290000 -9.5034342 41.468681
2748780000 -9.4931288 40.879433
2755270000 -9.489006 40.234428
2761760000 -9.4749393 39.679806
2768250000 -9.4680548 39.075649
2774740000 -9.4566669 38.54697
2781230000 -9.4537439 38.016392
2787720000 -9.4631948 37.41264
2794210000 -9.4741774 36.877918
2800700000 -9.4695988 36.190388
2807190000 -9.4811974 35.515705
2813680000 -9.4897499 34.783199
2820170000 -9.4927454 34.110931
2826660000 -9.4888229 33.386482
2833150000 -9.4874001 32.640766
2839640000 -9.4792786 31.859676
2846130000 -9.4647236 31.185858
2852620000 -9.4434376 30.536045
2859110000 -9.4241343 29.853592
2865600000 -9.4179325 29.258274
2872090000 -9.3995352 28.631508
2878580000 -9.3848448 28.085045
2885070000 -9.3817987 27.493563
2891560000 -9.3849258 26.970493
2898050000 -9.3893223 26.469254
2904540000 -9.3889236 25.872389
2911030000 -9.3989029 25.213959
2917520000 -9.4049721 24.561924
2924010000 -9.4189787 23.908859
2930500000 -9.4112225 23.110159
2936990000 -9.4234295 22.472383
2943480000 -9.4243107 21.760553
2949970000 -9.4043293 20.970261
2956460000 -9.4027853 20.308844
2962950000 -9.3852968 19.65839
2969440000 -9.3671331 18.932537
2975930000 -9.3453045 18.287472
2982420000 -9.3352909 17.734102
2988910000 -9.3310661 17.166824
2995400000 -9.3129845 16.615511
3001890000 -9.3151474 15.993919
3008380000 -9.3204994 15.404515
3014870000 -9.328227 14.772197
3021360000 -9.3281784 14.275006
3027850000 -9.3351221 13.5422
3034340000 -9.3330173 12.780809
3040830000 -9.3211946 12.154832
3047320000 -9.3185492 11.49931
3053810000 -9.3121042 10.69155
3060300000 -9.3115625 10.006466
3066790000 -9.3028107 9.343771
3073280000 -9.2669029 8.6564322
3079770000 -9.263792 7.9880319
3086260000 -9.2545557 7.3974295
3092750000 -9.2261696 6.7656841
3099240000 -9.2237787 6.2107062
3105730000 -9.2237568 5.5691891
3112220000 -9.2118483 4.9449949
3118710000 -9.2237606 4.3297973
3125200000 -9.2190971 3.6997581
3131690000 -9.2236176 3.0131619
3138180000 -9.2087936 2.289036
3144670000 -9.2079525 1.636368
3151160000 -9.1954994 1.0246166
3157650000 -9.1779881 0.27111471
3164140000 -9.160079 -0.39158005
3170630000 -9.1465588 -1.0025814
3177120000 -9.1238775 -1.535687
3183610000 -9.1029835 -2.2426665
3190100000 -9.0976114 -2.66555
3196590000 -9.0911388 -3.1565294
3203080000 -9.0989304 -3.7036641
3209570000 -9.0965624 -4.308322
3216060000 -9.1010761 -4.9094868
3222550000 -9.1055193 -5.4683218
3229040000 -9.1275997 -6.1985097
3235530000 -9.1132298 -6.9612107
3242020000 -9.1163139 -7.7020135
3248510000 -9.1204958 -8.4716454
3255000000 -9.0969381 -9.2493286
3261490000 -9.0968056 -10.06228
3267980000 -9.0558233 -10.751904
3274470000 -9.0342627 -11.463595
3280960000 -9.0029545 -12.102798
3287450000 -8.9709845 -12.748452
3293940000 -8.9445972 -13.224719
3300430000 -8.9303236 -13.836946
3306920000 -8.902853 -14.317005
3313410000 -8.9023018 -14.828117
3319900000 -8.9013119 -15.279873
3326390000 -8.8915777 -15.808379
3332880000 -8.8944626 -16.389019
3339370000 -8.8986301 -16.994055
3345860000 -8.8960791 -17.625694
3352350000 -8.8872366 -18.279699
3358840000 -8.8908157 -18.975315
3365330000 -8.8718309 -19.674166
3371820000 -8.8693905 -20.386801
3378310000 -8.8362656 -20.964287
3384800000 -8.8316755 -21.724396
3391290000 -8.8084908 -22.234959
3397780000 -8.7919931 -22.8144
3404270000 -8.7752171 -23.403543
3410760000 -8.7668161 -23.955015
3417250000 -8.751296 -24.52306
3423740000 -8.751852 -25.193602
3430230000 -8.7603636 -25.695198
3436720000 -8.7654028 -26.405872
3443210000 -8.7777758 -27.075434
3449700000 -8.7744703 -27.749207
3456190000 -8.7730322 -28.40543
3462680000 -8.7684898 -29.197441
3469170000 -8.7494497 -29.911478
3475660000 -8.7387199 -30.574095
3482150000 -8.7222176 -31.269012
3488640000 -8.6999531 -32.001484
3495130000 -8.6780424 -32.600201
3501620000 -8.6608353 -33.287811
3508110000 -8.6451988 -33.834488
3514600000 -8.6336956 -34.365635
3521090000 -8.6318235 -35.003597
3527580000 -8.6279335 -35.566624
3534070000 -8.6305666 -36.224934
3540560000 -8.6303549 -36.812878
3547050000 -8.6325264 -37.404049
3553540000 -8.6330996 -38.189789
3560030000 -8.62815 -38.795353
3566520000 -8.639286 -39.536713
3573010000 -8.6375113 -40.174938
3579500000 -8.6426678 -40.898319
3585990000 -8.6232214 -41.583412
3592480000 -8.6112242 -42.166573
3598970000 -8.6006813 -42.885983
3605460000 -8.5939388 -43.4319
3611950000 -8.5832386 -44.090366
3618440000 -8.5810804 -44.664845
3624930000 -8.577651 -45.231869
3631420000 -8.5687933 -45.798553
3637910000 -8.5734978 -46.412418
3644400000 -8.5625553 -47.005959
3650890000 -8.5561123 -47.604519
3657380000 -8.5470896 -48.253033
3663870000 -8.5235624 -48.941265
3670360000 -8.5220175 -49.571739
3676850000 -8.518425 -50.321987
3683340000 -8.5206184 -50.967697
3689830000 -8.5005474 -51.583908
3696320000 -8.499054 -52.136784
3702810000 -8.4837093 -52.857262
3709300000 -8.4836369 -53.466331
3715790000 -8.4704037 -54.091461
3722280000 -8.4685946 -54.819698
3728770000 -8.4547586 -55.465031
3735260000 -8.4578762 -56.270031
3741750000 -8.4404154 -56.929722
3748240000 -8.4297466 -57.601295
3754730000 -8.4329443 -58.307407
3761220000 -8.4053812 -59.056248
3767710000 -8.3749924 -59.663288
3774200000 -8.3634272 -60.322975
3780690000 -8.3324213 -61.002544
3787180000 -8.3127699 -61.631695
3793670000 -8.3009119 -62.280426
3800160000 -8.2856789 -62.84502
3806650000 -8.2812691 -63.353325
3813140000 -8.2688732 -63.935646
3819630000 -8.275218 -64.595772
3826120000 -8.2686234 -65.13781
3832610000 -8.2805052 -65.848656
3839100000 -8.2726412 -66.483437
3845590000 -8.2896194 -67.302864
3852080000 -8.2912607 -68.059929
3858570000 -8.2702112 -68.848282
3865060000 -8.2731619 -69.638153
3871550000 -8.2555351 -70.427711
3878040000 -8.2522917 -71.11348
3884530000 -8.2195807 -71.886246
3891020000 -8.2138414 -72.493118
3897510000 -8.1835032 -73.160324
3904000000 -8.1567497 -73.85688
3910490000 -8.1679516 -74.38662
3916980000 -8.1560755 -75.012779
3923470000 -8.1587801 -75.677734
3929960000 -8.1634235 -76.30246
3936450000 -8.1878719 -76.939674
3942940000 -8.2051029 -77.734596
3949430000 -8.2198877 -78.404381
3955920000 -8.2298431 -79.359131
3962410000 -8.2348118 -80.16906
3968900000 -8.2481785 -81.08847
3975390000 -8.2432775 -82.084671
3981880000 -8.2367868 -82.906761
3988370000 -8.2343559 -83.76268
3994860000 -8.2133484 -84.568642
4001350000 -8.2038174 -85.318031
